# HZ S RI R 50
50000 -1.0065668550744071 -5.21847118919505e-05
149034 -1.0066705898801684 0.00017913690339119525
248068 -1.0067465358167211 0.0003192657007548011
347102 -1.0068191718433088 0.0004281496189623205
446136 -1.0065324277806702 0.0004370824506697228
545170 -1.0069024978595014 0.0008467657185666356
644204 -1.0068559537998123 0.0009661336630044716
743238 -1.007036169057217 0.001320173164345892
842272 -1.0069437110855814 0.001501879660377009
941306 -1.007053517634155 0.0016942492259571075
1040340 -1.0070309339917745 0.0017267723292485634
1139374 -1.0069831415745816 0.0020713995657102788
1238408 -1.0070382788759202 0.0023568142302916803
1337442 -1.0071791182583378 0.0024601009047245208
1436476 -1.007185770073967 0.002744092764231976
1535510 -1.0069639958847563 0.002886615098440211
1634544 -1.007135599340358 0.002990373375181818
1733578 -1.0071906431521296 0.003402191459515937
1832612 -1.0071004200750917 0.00366307484008775
1931646 -1.0072864596349638 0.003694829357133327
2030680 -1.0072223321586296 0.004018313544478848
2129714 -1.0072476702974622 0.004181225553262037
2228748 -1.0073014738030124 0.00436206771679868
2327782 -1.0073956143358505 0.004712196456083312
2426816 -1.0074773354416429 0.004796858892226288
2525850 -1.007523922908287 0.004977309787127393
2624884 -1.0073320727603272 0.005289969206601126
2723918 -1.0075861590832595 0.005600307105965544
2822952 -1.0075536972844898 0.005757540360779306
2921986 -1.0075319323040721 0.005841182870720604
3021020 -1.0075301695752916 0.00615584081205365
3120054 -1.0076614316019583 0.006357823958579462
3219088 -1.0075064123786772 0.006607611842001179
3318122 -1.00759719855141 0.006718346859290074
3417156 -1.0076252294616816 0.007067202103357582
3516190 -1.007697149437979 0.007209155489619754
3615224 -1.0077372050267246 0.007408543844291445
3714258 -1.0076399518558745 0.007536613455660791
3813292 -1.007933018385103 0.007793450203543804
3912326 -1.0077692547524355 0.008090500358417508
4011360 -1.0076862888186782 0.008286834825717538
4110394 -1.0078186581085713 0.008617645073253272
4209428 -1.0079253064512799 0.008712865187057491
4308462 -1.0078190944298087 0.00872362453242541
4407496 -1.0076428422207007 0.009089486525820843
4506530 -1.0078579311168498 0.009318760688373619
4605564 -1.0078505850757924 0.00959557726165594
4704598 -1.0077232612867424 0.009787532629874406
4803632 -1.0077683793013927 0.010072821910307497
4902666 -1.0076831907816324 0.010204939419592123
5001700 -1.007797710488794 0.010336209583120481
5100734 -1.0077821051745246 0.010634189743553544
5199768 -1.0078106568535528 0.010797871916087925
5298802 -1.007827494396194 0.011120391649640756
5397836 -1.0079662603417885 0.011411431068234246
5496870 -1.007914094443245 0.011718016164078313
5595904 -1.0078080176383553 0.011871942034229092
5694938 -1.0078228668729552 0.011966868648793948
5793972 -1.0078448891897527 0.012288029602743493
5893006 -1.0078685924438375 0.01244692769366668
5992040 -1.0078652611573387 0.012618656633310871
6091074 -1.0078618827597459 0.01276901748871633
6190108 -1.007938048682702 0.01304661643845366
6289142 -1.0080078497270146 0.013275910048124064
6388176 -1.0079618275070505 0.013435238886366984
6487210 -1.0080564694058074 0.01364741032011286
6586244 -1.0079015336342434 0.013962089832800891
6685278 -1.0079012040116442 0.014298233307640656
6784312 -1.007954703764716 0.014484818289696241
6883346 -1.007858891786778 0.014732617260100188
6982380 -1.0078787312938002 0.01479935164720461
7081414 -1.0083222031663546 0.015051355139813096
7180448 -1.0081731260695077 0.015260806595802126
7279482 -1.0081236289666462 0.015412763718780096
7378516 -1.008075175007506 0.015700521531907506
7477550 -1.0082127817571696 0.015873862796949266
7576584 -1.0080716899025228 0.016050158756237325
7675618 -1.0081648973249926 0.016420726993847976
7774652 -1.0080955966767902 0.016462902053208068
7873686 -1.0081713178681402 0.01673079571859329
7972720 -1.0081637064509086 0.017085584376372365
8071754 -1.0082919707959186 0.017211233773304295
8170788 -1.0081250030868039 0.017543795885015395
8269822 -1.0082557857769956 0.017751223482696973
8368856 -1.0080619272784868 0.017887868328909203
8467890 -1.0083813896467162 0.01815272178330156
8566924 -1.0084517834565367 0.018333286442355195
8665958 -1.0083591230443298 0.01840502187587741
8764992 -1.0083095067739047 0.018908781947598576
8864026 -1.0084186316278085 0.01889009798046868
8963060 -1.0083581236547603 0.019221711799568383
9062094 -1.008296573212954 0.019437364874121833
9161128 -1.0083664249697724 0.01971172248933552
9260162 -1.0083889663908299 0.01985349204609129
9359196 -1.008340262164755 0.020186124248718695
9458230 -1.0083838085824433 0.020373329260504242
9557264 -1.0085627452308192 0.020468012629481967
9656298 -1.008679410935151 0.020685827957425594
9755332 -1.0087201356318904 0.020907754804674637
9854366 -1.0087315409591737 0.021153337616485232
9953400 -1.0088308958863672 0.02136541387193382
10052434 -1.0081389131511698 0.02200816701644593
10151468 -1.0081402248625324 0.021717148492085933
10250502 -1.008112948345486 0.02223713288588422
10349536 -1.008267124497113 0.022254911328401766
10448570 -1.0081236028318077 0.022528434338273572
10547604 -1.008132896195514 0.022715087996868503
10646638 -1.0082654509893578 0.022869149281963916
10745672 -1.0082460576327708 0.023165153149516064
10844706 -1.0082757045740525 0.023407588536500566
10943740 -1.0083054207949274 0.0236616266831292
11042774 -1.0082398154084398 0.02378988402164129
11141808 -1.0082845773945328 0.024008355532086297
11240842 -1.008267221862981 0.02428883071289177
11339876 -1.0081647259062492 0.024545619916611465
11438910 -1.0082780952091537 0.02462229541192619
11537944 -1.0084517876921513 0.024930107946539305
11636978 -1.0083269555161225 0.02517242782358692
11736012 -1.0085108689275415 0.025284771746371747
11835046 -1.0083017017001183 0.025548866707084367
11934080 -1.008402681491382 0.025813650572479693
12033114 -1.0084164335594552 0.02595659507658974
12132148 -1.0084744755087531 0.026312485845287382
12231182 -1.008531459049904 0.026529716579307097
12330216 -1.0083732087267239 0.0267615400959567
12429250 -1.0085637824145424 0.02701339943729648
12528284 -1.008619142089878 0.027096094651414982
12627318 -1.008717856846068 0.027189807632115225
12726352 -1.0087827240285536 0.027559895562796886
12825386 -1.0087113391498679 0.027663172988449017
12924420 -1.0088180471546837 0.027859850325995476
13023454 -1.0085651995246425 0.028188197270252353
13122488 -1.0088117974133186 0.028416988429493424
13221522 -1.0089225727063047 0.028680860572933575
13320556 -1.008671487046823 0.028861967221281957
13419590 -1.0087482308793885 0.029068813451958907
13518624 -1.009072580724447 0.029335023213339383
13617658 -1.0086986465597834 0.02948797334677913
13716692 -1.0090170403792742 0.029671853518641204
13815726 -1.0090631696698684 0.029908946139710436
13914760 -1.0088510938975306 0.030255754690341297
14013794 -1.009111252908356 0.030519674696991825
14112828 -1.0091086329847105 0.03059557743434554
14211862 -1.008890192033299 0.030791669453362557
14310896 -1.0089362387919036 0.031081163467258543
14409930 -1.0088316587103827 0.03123314887726794
14508964 -1.0089935164640318 0.0314020235065027
14607998 -1.008817908078855 0.03170815994865987
14707032 -1.009130357124469 0.031875471886579416
14806066 -1.0091231469890143 0.03217211557732348
14905100 -1.009122028412549 0.0321830318480143
15004134 -1.0091017320695557 0.03240771339681421
15103168 -1.009339753856298 0.03270843953477111
15202202 -1.0092553484953675 0.03309274277758294
15301236 -1.0091528484235779 0.033312220525098406
15400270 -1.009264319323459 0.03358911619014232
15499304 -1.0092479015788598 0.03356412645401185
15598338 -1.0093483758169175 0.033985565512229865
15697372 -1.009304593802786 0.03411471462010791
15796406 -1.0092306669179176 0.03445752912270703
15895440 -1.009412942393386 0.034546159366715117
15994474 -1.0094456197427961 0.03468704565771518
16093508 -1.0093744958920328 0.03517679309085436
16192542 -1.0094766024889872 0.03515497600361746
16291576 -1.009467604005381 0.035544836453139356
16390610 -1.0095052844573276 0.035473200987307794
16489644 -1.0096589214661058 0.035779697733068404
16588678 -1.0095954725219631 0.036002555633793565
16687712 -1.009618414683904 0.03629727777266808
16786746 -1.0096844533604348 0.03652993992144163
16885780 -1.0095656399204127 0.036658033515767255
16984814 -1.0097865260920134 0.03711185949531441
17083848 -1.009832717564232 0.03729820545798012
17182882 -1.0097511618289101 0.037489021219853084
17281916 -1.009781169929733 0.03766867622491327
17380950 -1.0098545455525112 0.037728408472553134
17479984 -1.0100994021228917 0.038087505942478256
17579018 -1.0100430581473863 0.03836851428285147
17678052 -1.0100436252034761 0.038607038456801565
17777086 -1.0102719054256828 0.03873502670741921
17876120 -1.0100096390820061 0.03902076229333377
17975154 -1.0100938285637369 0.03912919646944673
18074188 -1.0100082129512096 0.03931347460587307
18173222 -1.0100678611169942 0.03971971361788405
18272256 -1.0099524069243637 0.0399062801616269
18371290 -1.0101849338675482 0.04003642022035899
18470324 -1.0100322564953192 0.04024798068316691
18569358 -1.010416581877768 0.04056118532018202
18668392 -1.0102096050791693 0.0406220242577916
18767426 -1.0102554939109818 0.04076615355923924
18866460 -1.0099341725825761 0.04103330487959658
18965494 -1.0101892270432866 0.04150921619627379
19064528 -1.0102843417208962 0.04168646844065196
19163562 -1.010571034561453 0.04196199874277709
19262596 -1.0104440799839065 0.041904988066167076
19361630 -1.0102715694372282 0.04215966600342724
19460664 -1.0102332359468842 0.04252326139999206
19559698 -1.0104447188952335 0.04266772538757455
19658732 -1.0103510114842733 0.042771671961896435
19757766 -1.0104090458910733 0.043138453873060645
19856800 -1.010643757115823 0.04336899421884947
19955834 -1.0105138449283881 0.043573187997875434
20054868 -1.0103837340572805 0.04372319066784308
20153902 -1.0104904729848447 0.044080820680296826
20252936 -1.0105350690222235 0.044156211815226644
20351970 -1.0105148115199216 0.044397104789507244
20451004 -1.0105361533029278 0.04450669113203455
20550038 -1.010657648061225 0.04488466170388793
20649072 -1.0105934223756452 0.04506149230632015
20748106 -1.0107947266740125 0.0453515212134097
20847140 -1.010837321722036 0.045547140941148166
20946174 -1.0106158386401105 0.04588453548523358
21045208 -1.0108134138483629 0.04608792995704593
21144242 -1.0107904098499554 0.04632889630741858
21243276 -1.0108601267876591 0.04649938710719939
21342310 -1.0110501503233889 0.04660754869230478
21441344 -1.0107337954570044 0.04689402758498151
21540378 -1.0109338547062956 0.047157578917083574
21639412 -1.0109621326275195 0.04733380201872117
21738446 -1.0111087321779086 0.04746654789272162
21837480 -1.010841945101279 0.04794642245700833
21936514 -1.011155358028393 0.048006843163150695
22035548 -1.0112255385984918 0.04843694589757936
22134582 -1.011118844804392 0.048275944935917706
22233616 -1.0111818127153873 0.0487140143919105
22332650 -1.0111063435470238 0.048820097838159424
22431684 -1.0112439504945552 0.048943086468810404
22530718 -1.011489571650751 0.049363338717948346
22629752 -1.011336698105104 0.049545413224020035
22728786 -1.011382928247136 0.04967914997219731
22827820 -1.0112248877592065 0.04998080872392873
22926854 -1.0111360458106038 0.05021665513274986
23025888 -1.0112977403773078 0.05036011981205628
23124922 -1.0113964527508035 0.050473155013916256
23223956 -1.0113799846067 0.05092963354432354
23322990 -1.011382288267127 0.050829532051334385
23422024 -1.011419079934983 0.051367780302022166
23521058 -1.0114728607617254 0.051515852536570275
23620092 -1.011611425527169 0.051608183962143735
23719126 -1.0117552162685646 0.052084355900067075
23818160 -1.0115603242950513 0.052061442596535466
23917194 -1.0116239784895857 0.05228337749505382
24016228 -1.0117591889568605 0.05269649704469543
24115262 -1.0116687596093052 0.052835072571836006
24214296 -1.0115663335809453 0.052902641299149206
24313330 -1.0119651247190224 0.053137195638217394
24412364 -1.0115664767799346 0.05362928817558876
24511398 -1.0118978954007005 0.053702637286176524
24610432 -1.011888118903424 0.053952478071441934
24709466 -1.0120028704104798 0.05412257520028623
24808500 -1.0120945873353189 0.05426588144079387
24907534 -1.0118941155398116 0.05468316045787422
25006568 -1.012153908905683 0.05475312999175587
25105602 -1.0120579762433697 0.05507498361403067
25204636 -1.012316742152849 0.05534262535264794
25303670 -1.0120717990032502 0.055405875676440904
25402704 -1.0121472714849193 0.05575095472138598
25501738 -1.0122362471802078 0.05591339308265271
25600772 -1.0123328513830039 0.05604647148705389
25699806 -1.0126966622000646 0.056345253398211684
25798840 -1.0125164766211463 0.056641163065207605
25897874 -1.0122648595545736 0.05668413215930032
25996908 -1.0125622489735522 0.057001847000259454
26095942 -1.012528240080318 0.0571259914925498
26194976 -1.0126437090857334 0.057437673400313104
26294010 -1.0124865496506514 0.057572004216415444
26393044 -1.0126522693165936 0.057998871503085685
26492078 -1.0127305173045218 0.05828996734080325
26591112 -1.0126292032552513 0.058295814031812845
26690146 -1.0127755549196966 0.058576757087304504
26789180 -1.0127233223858079 0.05887018249521838
26888214 -1.0128067438100974 0.05892811921654538
26987248 -1.0130060042278337 0.059125394626381896
27086282 -1.0130414969451895 0.05959282139591294
27185316 -1.0127318517171333 0.05971808208436928
27284350 -1.0131641738781818 0.059740808786746924
27383384 -1.0129143619791765 0.06010821657469152
27482418 -1.0128827475240152 0.06018146039646091
27581452 -1.0131845733567715 0.06039117873326944
27680486 -1.0130718808424581 0.060599859111779515
27779520 -1.0131361985469696 0.06085146306122865
27878554 -1.013150876216248 0.061164185846562004
27977588 -1.0133899887713738 0.06155594988766473
28076622 -1.0134559558501972 0.0616128443540888
28175656 -1.0131899534315458 0.06183644189695098
28274690 -1.0132480784113451 0.06185244210447203
28373724 -1.0132831688752495 0.062446396824215294
28472758 -1.013363323466993 0.06253042388040428
28571792 -1.013745161198183 0.06271358266298296
28670826 -1.0135406501138033 0.06290020391844912
28769860 -1.013714616671308 0.06290606905855363
28868894 -1.013641381692414 0.06353859818276385
28967928 -1.0135934059495202 0.06342098472705454
29066962 -1.0137725333399978 0.0637691088521619
29165996 -1.0138185503417132 0.06399969757375064
29265030 -1.0139265430028956 0.0641476721253355
29364064 -1.013978225153033 0.06425793855668017
29463098 -1.0138815534130925 0.06473764250565098
29562132 -1.0140766403584047 0.06485049122435695
29661166 -1.013811417309569 0.06485475209055078
29760200 -1.0139827158143848 0.06514219367935478
29859234 -1.014227797060686 0.06553380254418989
29958268 -1.0139265857371957 0.0657080122379182
30057302 -1.0140314199661422 0.0658569085726844
30156336 -1.0138191301720074 0.06595474618586904
30255370 -1.0143522211159748 0.06629867287007102
30354404 -1.0142464456447104 0.06653187009190566
30453438 -1.0141905139450549 0.06676915528675635
30552472 -1.0143481709870827 0.06682965234430775
30651506 -1.0142750684215895 0.06696730761496876
30750540 -1.014127936088108 0.06732394899655407
30849574 -1.0143316613652285 0.06742149804466067
30948608 -1.0141863879418285 0.06781636677487189
31047642 -1.0145250901762095 0.067796217274548
31146676 -1.0144625441580162 0.06821199469529168
31245710 -1.0144773103355968 0.06826119128924635
31344744 -1.014600472373469 0.06856598671969369
31443778 -1.0145736542649815 0.06899584542701453
31542812 -1.014570319236602 0.06909810784234623
31641846 -1.0145482208552141 0.06959372532264725
31740880 -1.014756119347479 0.0695676613544406
31839914 -1.0146631192385633 0.06963213999633314
31938948 -1.014805567671227 0.06976704141413602
32037982 -1.0148545116552157 0.07029236163416426
32137016 -1.0148351212131692 0.07045523234172604
32236050 -1.0148507010224608 0.07066846658698882
32335084 -1.0150689490389044 0.070993574840795
32434118 -1.0149694745802122 0.07114295596686762
32533152 -1.0150846267700895 0.07126010513543186
32632186 -1.015236469715417 0.07151918367556148
32731220 -1.0153491222523998 0.07169772720031602
32830254 -1.015233680931848 0.07215456103093591
32929288 -1.0150832176866216 0.07224106988232823
33028322 -1.015221602701122 0.07220917359392602
33127356 -1.015090440889947 0.07252584737742426
33226390 -1.0154832260610946 0.07275811316859929
33325424 -1.0154032769879289 0.07316862737976156
33424458 -1.0153730486055268 0.07336056298760905
33523492 -1.0152642577979867 0.07339889848757773
33622526 -1.0157310479547055 0.07350799965530298
33721560 -1.0155976671037594 0.07390647987566709
33820594 -1.0154980886086766 0.07403778821399411
33919628 -1.015656456768307 0.07419774303754866
34018662 -1.0157778309632515 0.07451572596327673
34117696 -1.0158929347320003 0.0747317122270796
34216730 -1.0157698741239087 0.07497891289722124
34315764 -1.015834095517183 0.0752003862063351
34414798 -1.0158645761429141 0.07533464005654283
34513832 -1.0159043143242927 0.07552501087064498
34612866 -1.0159551873312054 0.07611279289529553
34711900 -1.0157803780157946 0.07593457833418112
34810934 -1.0159704051225225 0.07621750738736113
34909968 -1.0160852411563726 0.07648549909389506
35009002 -1.016248522136367 0.07671667232301796
35108036 -1.0160913918972863 0.07667026344222566
35207070 -1.0162896882244083 0.07710351653331768
35306104 -1.0162488049478446 0.07734185217458962
35405138 -1.016346585558452 0.07754057443037556
35504172 -1.0163140589201616 0.07789983641151942
35603206 -1.0163670916893202 0.07781945475183343
35702240 -1.0163257993987174 0.07814946645059383
35801274 -1.0166140960322692 0.078251395485
35900308 -1.0164126340174593 0.07852599384112918
35999342 -1.0165977769710037 0.07892832500028728
36098376 -1.0165159091510465 0.07905421273340296
36197410 -1.0168094242937231 0.07914399389302831
36296444 -1.0167441174556202 0.07951243216066824
36395478 -1.0167748788064939 0.07957313584262111
36494512 -1.0168451906255045 0.08007416818188791
36593546 -1.0167763187256371 0.07997586407398191
36692580 -1.0170578641857562 0.08018401769224731
36791614 -1.0169221276667593 0.08059162749627137
36890648 -1.0168542663607916 0.08074626486557389
36989682 -1.0168694172746258 0.08092076408934996
37088716 -1.0168911375385854 0.0811819286698096
37187750 -1.0171655822039385 0.08157515730624666
37286784 -1.0170973575715399 0.081562274814948
37385818 -1.0173549716754744 0.08192235925995278
37484852 -1.0174473699306905 0.08222891834600915
37583886 -1.0172762662050425 0.08225050865036942
37682920 -1.0174312276244448 0.08238682389217342
37781954 -1.0174734640677172 0.08279413122908147
37880988 -1.0176393474502514 0.0830861563643806
37980022 -1.0176599235655874 0.08297350458334107
38079056 -1.0175043449120054 0.08310781236745787
38178090 -1.017738453470431 0.08349037883242148
38277124 -1.017639844320575 0.08383070734290714
38376158 -1.017852154264567 0.08415208501110112
38475192 -1.0179802074839304 0.0842607482632615
38574226 -1.0178648662286593 0.08435814824169237
38673260 -1.0180083300451666 0.08440464525157694
38772294 -1.0181196578168796 0.0846171860821836
38871328 -1.0180709746713257 0.08519684214208272
38970362 -1.0181850386743079 0.08520640473655054
39069396 -1.0181308838431924 0.08542864112648149
39168430 -1.0180846019372802 0.08570369114895399
39267464 -1.0181413835881983 0.08594325540501314
39366498 -1.0182116594022144 0.08610057897749795
39465532 -1.018350183305776 0.08645381569740564
39564566 -1.0185708891444651 0.08633377251804424
39663600 -1.0185235990398644 0.08666430830742852
39762634 -1.0184515463500854 0.08704253418372174
39861668 -1.0187802297763502 0.08717694180970048
39960702 -1.018577186906943 0.08741524601281077
40059736 -1.0186661700335844 0.08746909320971138
40158770 -1.0186616687173575 0.08800334243923652
40257804 -1.0186260421614222 0.08799887894157657
40356838 -1.01882978453537 0.08834137261155053
