! Params: S11 S21 S12 S22
! Start frequency: 0.050000000 GHz
! Stop frequency:  7.000000000 GHz
! Points: 1601
!
# HZ S RI R 50
50000000.000000 -0.002570 -0.004076 0.498724 -0.029296 0.498577 -0.029156 -0.001020 -0.001997 
54343750.000000 0.001594 0.000156 0.498754 -0.032454 0.498891 -0.032296 0.002650 -0.000816 
58687500.000000 0.000963 -0.001747 0.499271 -0.034399 0.499290 -0.034545 -0.007325 0.004311 
63031250.000000 -0.000389 -0.002562 0.498588 -0.036671 0.498701 -0.036475 0.003549 -0.003958 
67375000.000000 0.000185 -0.001309 0.497919 -0.039706 0.498096 -0.039432 0.002223 -0.004454 
71718750.000000 -0.000214 -0.001023 0.498399 -0.042271 0.498253 -0.041994 -0.000729 -0.004017 
76062500.000000 -0.000747 -0.001567 0.497919 -0.044214 0.497955 -0.044132 -0.000769 0.000561 
80406250.000000 -0.000275 -0.001592 0.497760 -0.047184 0.497647 -0.047329 -0.001192 0.001120 
84750000.000000 -0.000245 -0.001410 0.497368 -0.049192 0.497461 -0.049250 0.000173 -0.006889 
89093750.000000 0.000006 -0.001219 0.497220 -0.052031 0.497157 -0.051821 0.006908 -0.005960 
93437500.000000 0.000876 -0.001719 0.496792 -0.054444 0.496509 -0.054317 0.000241 -0.004976 
97781250.000000 0.001247 -0.001735 0.495842 -0.057119 0.496516 -0.056907 -0.000744 0.000427 
102125000.000000 0.000036 -0.002186 0.495325 -0.059467 0.495901 -0.059500 0.003426 -0.003718 
106468750.000000 -0.000126 -0.001672 0.496206 -0.061974 0.495443 -0.061855 0.002872 -0.000623 
110812500.000000 -0.000512 -0.001962 0.495807 -0.064329 0.495286 -0.064201 0.002608 -0.001872 
115156250.000000 0.000254 -0.002556 0.494716 -0.067107 0.494954 -0.066922 0.000206 -0.003162 
119500000.000000 0.000650 -0.002929 0.494403 -0.069273 0.494694 -0.069121 0.001159 -0.003137 
123843750.000000 -0.000271 -0.001430 0.494161 -0.071865 0.494665 -0.072399 0.003160 -0.004477 
128187500.000000 0.000266 -0.002904 0.493848 -0.074551 0.493806 -0.074643 0.001969 -0.003450 
132531250.000000 0.000282 -0.002405 0.493274 -0.076813 0.493199 -0.076474 -0.000838 -0.002482 
136875000.000000 0.000190 -0.002214 0.492968 -0.079018 0.492570 -0.078932 -0.000840 -0.001714 
141218750.000000 0.000316 -0.002905 0.492812 -0.081808 0.492808 -0.082256 0.003037 -0.002195 
145562500.000000 -0.000052 -0.002670 0.492004 -0.083735 0.491912 -0.083607 0.000063 -0.000948 
149906250.000000 -0.000114 -0.003037 0.491302 -0.086876 0.491903 -0.086459 0.002481 -0.001463 
154250000.000000 -0.000017 -0.003166 0.491336 -0.089155 0.491154 -0.089369 0.001624 -0.002472 
158593750.000000 -0.000015 -0.002832 0.490775 -0.091583 0.491167 -0.091548 -0.000266 -0.002500 
162937500.000000 0.000195 -0.003240 0.490747 -0.094294 0.490438 -0.094564 0.002276 -0.003533 
167281250.000000 -0.000600 -0.003081 0.489549 -0.096918 0.489524 -0.097047 0.002453 -0.003062 
171625000.000000 0.000116 -0.003512 0.489214 -0.099302 0.489736 -0.098847 0.002302 -0.002946 
175968750.000000 -0.000185 -0.003037 0.488549 -0.101288 0.488491 -0.100946 0.001138 -0.001511 
180312500.000000 -0.000067 -0.003451 0.488268 -0.103515 0.487876 -0.103202 0.000209 -0.004391 
184656250.000000 -0.000100 -0.003487 0.487388 -0.106801 0.488212 -0.106184 0.000612 -0.003023 
189000000.000000 -0.000152 -0.003669 0.486920 -0.109233 0.487238 -0.108262 0.002079 -0.003518 
193343750.000000 -0.000503 -0.003678 0.486911 -0.111058 0.486958 -0.111292 0.000564 -0.003717 
197687500.000000 -0.000131 -0.003747 0.486148 -0.113612 0.486006 -0.113233 0.000665 -0.001526 
202031250.000000 -0.000282 -0.004151 0.485568 -0.116487 0.485759 -0.115929 0.000618 -0.003476 
206375000.000000 -0.000210 -0.004117 0.485237 -0.118452 0.484856 -0.118652 -0.000188 -0.004102 
210718750.000000 -0.000346 -0.004313 0.484038 -0.120851 0.484064 -0.120515 0.001169 -0.003978 
215062500.000000 -0.000451 -0.004509 0.483182 -0.123212 0.483471 -0.123040 0.002230 -0.003917 
219406250.000000 -0.000364 -0.004419 0.483057 -0.125665 0.482567 -0.125485 0.001107 -0.004178 
223750000.000000 -0.000477 -0.004363 0.482248 -0.128245 0.482212 -0.127888 0.001586 -0.005245 
228093750.000000 -0.000257 -0.004662 0.481813 -0.130458 0.481166 -0.130058 0.000094 -0.004024 
232437500.000000 0.000015 -0.004864 0.480883 -0.132955 0.480496 -0.133668 0.000566 -0.004250 
236781250.000000 -0.000076 -0.005065 0.479818 -0.135102 0.479877 -0.135255 0.002044 -0.003028 
241125000.000000 -0.000197 -0.005360 0.479266 -0.137507 0.479912 -0.136980 0.000794 -0.003957 
245468750.000000 -0.000401 -0.005129 0.478540 -0.139862 0.478600 -0.140004 0.001542 -0.004674 
249812500.000000 -0.000453 -0.005005 0.477832 -0.142507 0.477990 -0.142518 0.002352 -0.004334 
254156250.000000 -0.000525 -0.005437 0.477048 -0.144675 0.477106 -0.145066 0.000254 -0.004156 
258500000.000000 -0.000450 -0.005062 0.475977 -0.146932 0.476161 -0.147096 0.000748 -0.005199 
262843750.000000 -0.000560 -0.005579 0.475879 -0.148806 0.475883 -0.149261 -0.000449 -0.005240 
267187500.000000 -0.000617 -0.005350 0.474905 -0.151331 0.474233 -0.152008 0.001490 -0.004361 
271531250.000000 -0.000714 -0.005420 0.473477 -0.153806 0.473803 -0.153796 0.001032 -0.005311 
275875000.000000 -0.000370 -0.005566 0.473287 -0.156630 0.473200 -0.156583 0.001101 -0.005176 
280218750.000000 -0.000720 -0.006041 0.472461 -0.158710 0.472332 -0.158524 0.001221 -0.006331 
284562500.000000 -0.000713 -0.005794 0.471122 -0.161780 0.471704 -0.160902 0.000991 -0.005464 
288906250.000000 -0.000462 -0.005966 0.470479 -0.163301 0.471068 -0.163910 0.001221 -0.003349 
293250000.000000 -0.000841 -0.006175 0.470282 -0.166238 0.469876 -0.166248 -0.000140 -0.004887 
297593750.000000 -0.000930 -0.006326 0.469121 -0.168242 0.468891 -0.168096 0.000621 -0.005201 
301937500.000000 -0.000819 -0.006441 0.467763 -0.171535 0.468374 -0.170763 0.000689 -0.004821 
306281250.000000 -0.000871 -0.006435 0.467040 -0.172970 0.466883 -0.173636 -0.000590 -0.004705 
310625000.000000 -0.000927 -0.006487 0.466161 -0.175405 0.466650 -0.175299 -0.000913 -0.004877 
314968750.000000 -0.001184 -0.006828 0.465540 -0.177403 0.465511 -0.177792 0.000234 -0.005703 
319312500.000000 -0.001213 -0.006574 0.464246 -0.179989 0.464411 -0.179989 0.001812 -0.005448 
323656250.000000 -0.001110 -0.006883 0.464382 -0.182030 0.463647 -0.182216 0.000785 -0.005019 
328000000.000000 -0.001169 -0.007032 0.463045 -0.185065 0.462776 -0.185059 0.000697 -0.005994 
332343750.000000 -0.001267 -0.007149 0.462076 -0.186874 0.462211 -0.187176 0.001159 -0.005288 
336687500.000000 -0.001075 -0.007225 0.460651 -0.188962 0.460564 -0.189357 0.000058 -0.005430 
341031250.000000 -0.001193 -0.007290 0.460014 -0.191712 0.460398 -0.191227 0.000090 -0.006349 
345375000.000000 -0.001414 -0.007411 0.459073 -0.193739 0.459073 -0.193739 0.000791 -0.007205 
349718750.000000 -0.001452 -0.007545 0.458169 -0.195902 0.458229 -0.195835 -0.000576 -0.006403 
354062500.000000 -0.001417 -0.007658 0.456753 -0.198269 0.457119 -0.198622 -0.000259 -0.005966 
358406250.000000 -0.001492 -0.007633 0.455951 -0.200419 0.456290 -0.200345 0.000774 -0.006575 
362750000.000000 -0.001615 -0.007768 0.454772 -0.202496 0.454523 -0.202404 0.000019 -0.005963 
367093750.000000 -0.001486 -0.007732 0.454096 -0.205879 0.453746 -0.205226 -0.000289 -0.006230 
371437500.000000 -0.001616 -0.008084 0.452579 -0.207352 0.452437 -0.207259 0.000370 -0.006818 
375781250.000000 -0.001636 -0.007819 0.451749 -0.210017 0.452033 -0.209906 -0.000113 -0.006256 
380125000.000000 -0.001697 -0.008118 0.451177 -0.212103 0.450370 -0.212436 0.000459 -0.006896 
384468750.000000 -0.001677 -0.008328 0.449620 -0.214147 0.449966 -0.214105 -0.001005 -0.006281 
388812500.000000 -0.001846 -0.008207 0.448847 -0.216828 0.448676 -0.216152 -0.000078 -0.006335 
393156250.000000 -0.001924 -0.008390 0.447313 -0.218575 0.447738 -0.218376 -0.001025 -0.006193 
397500000.000000 -0.002062 -0.008515 0.446227 -0.220878 0.446134 -0.221003 -0.000334 -0.007787 
401843750.000000 -0.002080 -0.008601 0.444389 -0.222719 0.444662 -0.222704 -0.000115 -0.006091 
406187500.000000 -0.002170 -0.008655 0.444484 -0.225018 0.444149 -0.224810 -0.000652 -0.006336 
410531250.000000 -0.002135 -0.008763 0.442921 -0.226945 0.442874 -0.227589 -0.000795 -0.006430 
414875000.000000 -0.002075 -0.008861 0.441676 -0.229511 0.441580 -0.229968 -0.001082 -0.007504 
419218750.000000 -0.002410 -0.008971 0.440425 -0.232112 0.440575 -0.231827 -0.001844 -0.007241 
423562500.000000 -0.002370 -0.009167 0.439201 -0.234152 0.439693 -0.233914 -0.000948 -0.007234 
427906250.000000 -0.002385 -0.009181 0.438139 -0.236104 0.438320 -0.235739 -0.001434 -0.007367 
432250000.000000 -0.002611 -0.009050 0.437587 -0.238122 0.437241 -0.238552 -0.001179 -0.007003 
436593750.000000 -0.002357 -0.009303 0.435330 -0.240406 0.435726 -0.240470 -0.001924 -0.007469 
440937500.000000 -0.002590 -0.009363 0.434548 -0.242649 0.434961 -0.242714 -0.002337 -0.008099 
445281250.000000 -0.002549 -0.009575 0.433246 -0.245109 0.433512 -0.244753 -0.001242 -0.007419 
449625000.000000 -0.002869 -0.009690 0.432691 -0.247020 0.432602 -0.247008 -0.001073 -0.007643 
453968750.000000 -0.002849 -0.009808 0.430866 -0.249604 0.431198 -0.249590 -0.001319 -0.008209 
458312500.000000 -0.002852 -0.010020 0.429944 -0.251660 0.429574 -0.251296 -0.000824 -0.007811 
462656250.000000 -0.002845 -0.009781 0.427677 -0.253662 0.428663 -0.253260 -0.001810 -0.008254 
467000000.000000 -0.003034 -0.009873 0.426613 -0.255583 0.426643 -0.255206 -0.001295 -0.008547 
471343750.000000 -0.003138 -0.010122 0.425180 -0.257798 0.425706 -0.257442 -0.001546 -0.007998 
475687500.000000 -0.003071 -0.010195 0.424403 -0.260015 0.424062 -0.259607 -0.001626 -0.007999 
480031250.000000 -0.003191 -0.010376 0.422934 -0.261520 0.423529 -0.261888 -0.001759 -0.008101 
484375000.000000 -0.003333 -0.010316 0.421644 -0.264253 0.422062 -0.264114 -0.001959 -0.008902 
488718750.000000 -0.003338 -0.010322 0.420350 -0.265862 0.420380 -0.265160 -0.001577 -0.008588 
493062500.000000 -0.003533 -0.010657 0.418806 -0.267874 0.418753 -0.267800 -0.002051 -0.008176 
497406250.000000 -0.003480 -0.010635 0.417680 -0.269729 0.418346 -0.270219 -0.001828 -0.008949 
501750000.000000 -0.003622 -0.010641 0.416233 -0.272084 0.416585 -0.272516 -0.002182 -0.008827 
506093750.000000 -0.003530 -0.010798 0.415427 -0.273847 0.414792 -0.273590 -0.001808 -0.008762 
510437500.000000 -0.003694 -0.010824 0.413061 -0.276549 0.413101 -0.276087 -0.001690 -0.008806 
514781250.000000 -0.003773 -0.010966 0.412723 -0.278406 0.412748 -0.278668 -0.002794 -0.009080 
519125000.000000 -0.003841 -0.011073 0.410392 -0.279876 0.410607 -0.280106 -0.002424 -0.009371 
523468750.000000 -0.003960 -0.011107 0.409342 -0.282320 0.409569 -0.282312 -0.002623 -0.008992 
527812500.000000 -0.004113 -0.011322 0.408073 -0.284225 0.407793 -0.284236 -0.002518 -0.008390 
532156250.000000 -0.004218 -0.011394 0.406026 -0.285955 0.406533 -0.286230 -0.002460 -0.008424 
536500000.000000 -0.004096 -0.011409 0.405349 -0.288820 0.404782 -0.288603 -0.002325 -0.008771 
540843750.000000 -0.004294 -0.011392 0.403551 -0.289701 0.403034 -0.290372 -0.003384 -0.009530 
545187500.000000 -0.004398 -0.011515 0.401936 -0.291961 0.401904 -0.292147 -0.002919 -0.009499 
549531250.000000 -0.004486 -0.011830 0.400837 -0.294389 0.400140 -0.294277 -0.003155 -0.008734 
553875000.000000 -0.004572 -0.011772 0.398775 -0.295983 0.398491 -0.295920 -0.002894 -0.009035 
558218750.000000 -0.004721 -0.011929 0.398151 -0.298245 0.397508 -0.298101 -0.003337 -0.009142 
562562500.000000 -0.004663 -0.012067 0.396264 -0.300262 0.396078 -0.299675 -0.003987 -0.009225 
566906250.000000 -0.004814 -0.011905 0.394486 -0.302273 0.394393 -0.302095 -0.003321 -0.009588 
571250000.000000 -0.004841 -0.012050 0.393172 -0.304619 0.393234 -0.304196 -0.003658 -0.009672 
575593750.000000 -0.004967 -0.012040 0.391822 -0.306104 0.391278 -0.305915 -0.003548 -0.009634 
579937500.000000 -0.005133 -0.012317 0.390492 -0.307731 0.389953 -0.307738 -0.004481 -0.009522 
584281250.000000 -0.005139 -0.012361 0.388592 -0.309814 0.388289 -0.310483 -0.003516 -0.009626 
588625000.000000 -0.005324 -0.012298 0.387019 -0.311332 0.386281 -0.311890 -0.003907 -0.009990 
592968750.000000 -0.005444 -0.012468 0.384939 -0.313787 0.384758 -0.314010 -0.003822 -0.009566 
597312500.000000 -0.005414 -0.012511 0.384214 -0.315975 0.384031 -0.315978 -0.004591 -0.009853 
601656250.000000 -0.005519 -0.012735 0.382593 -0.318111 0.382035 -0.317383 -0.004269 -0.010071 
606000000.000000 -0.005685 -0.012710 0.380746 -0.319949 0.380635 -0.320321 -0.004106 -0.009925 
610343750.000000 -0.005669 -0.012673 0.379015 -0.321415 0.378626 -0.321507 -0.004647 -0.010009 
614687500.000000 -0.005870 -0.012935 0.376424 -0.323098 0.377126 -0.322986 -0.004242 -0.010120 
619031250.000000 -0.005873 -0.012983 0.375668 -0.324702 0.375937 -0.325651 -0.004253 -0.010285 
623375000.000000 -0.006071 -0.013005 0.374350 -0.327304 0.373857 -0.327549 -0.004606 -0.010544 
627718750.000000 -0.006327 -0.013089 0.372516 -0.329031 0.372573 -0.328924 -0.005043 -0.010463 
632062500.000000 -0.006215 -0.013233 0.370600 -0.330161 0.370777 -0.330318 -0.005022 -0.010121 
636406250.000000 -0.006414 -0.013277 0.369124 -0.332247 0.368618 -0.332247 -0.004894 -0.010187 
640750000.000000 -0.006384 -0.013226 0.367879 -0.334249 0.367178 -0.334253 -0.004989 -0.010629 
645093750.000000 -0.006493 -0.013368 0.365445 -0.335878 0.365915 -0.336150 -0.005275 -0.010133 
649437500.000000 -0.006688 -0.013558 0.363527 -0.337031 0.364124 -0.337884 -0.005569 -0.010676 
653781250.000000 -0.006656 -0.013529 0.362771 -0.339540 0.362536 -0.339853 -0.004720 -0.010502 
658125000.000000 -0.006916 -0.013651 0.360314 -0.341133 0.361012 -0.340861 -0.005183 -0.011303 
662468750.000000 -0.006982 -0.013694 0.359402 -0.343044 0.359115 -0.343426 -0.005141 -0.010787 
666812500.000000 -0.007096 -0.013718 0.357544 -0.345182 0.356869 -0.344695 -0.004860 -0.011008 
671156250.000000 -0.007140 -0.013718 0.355647 -0.346976 0.354964 -0.346877 -0.006048 -0.010328 
675500000.000000 -0.007299 -0.013932 0.353670 -0.349070 0.354022 -0.348633 -0.005567 -0.010985 
679843750.000000 -0.007398 -0.013823 0.352266 -0.350111 0.351940 -0.350360 -0.005833 -0.010438 
684187500.000000 -0.007545 -0.014019 0.350229 -0.351952 0.350385 -0.352782 -0.005792 -0.010335 
688531250.000000 -0.007699 -0.014120 0.348549 -0.353792 0.348913 -0.354041 -0.006036 -0.011314 
692875000.000000 -0.007665 -0.014200 0.346543 -0.355348 0.346817 -0.355509 -0.006339 -0.011495 
697218750.000000 -0.007895 -0.014111 0.345049 -0.356992 0.345080 -0.357389 -0.005981 -0.010985 
701562500.000000 -0.007953 -0.014242 0.343308 -0.358918 0.343247 -0.358977 -0.006225 -0.010829 
705906250.000000 -0.008107 -0.014294 0.341386 -0.360631 0.341260 -0.360597 -0.007181 -0.011326 
710250000.000000 -0.008219 -0.014337 0.339923 -0.361992 0.339805 -0.362064 -0.006821 -0.011319 
714593750.000000 -0.008101 -0.014507 0.337630 -0.364074 0.337659 -0.364105 -0.006498 -0.010999 
718937500.000000 -0.008396 -0.014451 0.336108 -0.365120 0.335841 -0.365479 -0.006155 -0.010762 
723281250.000000 -0.008473 -0.014559 0.334146 -0.367614 0.333999 -0.367503 -0.007235 -0.011095 
727625000.000000 -0.008712 -0.014719 0.332203 -0.368620 0.332052 -0.368831 -0.006686 -0.011410 
731968750.000000 -0.008654 -0.014687 0.330244 -0.370974 0.330370 -0.371217 -0.007013 -0.011069 
736312500.000000 -0.008760 -0.014709 0.328534 -0.372080 0.328472 -0.372190 -0.007121 -0.011585 
740656250.000000 -0.009114 -0.014775 0.326522 -0.373532 0.326401 -0.373600 -0.006722 -0.011660 
745000000.000000 -0.009149 -0.014993 0.324995 -0.375489 0.324750 -0.375258 -0.007874 -0.010766 
749343750.000000 -0.009228 -0.014991 0.323544 -0.377126 0.322810 -0.376946 -0.007359 -0.011490 
753687500.000000 -0.009451 -0.014931 0.321085 -0.378600 0.320962 -0.378612 -0.007614 -0.011721 
758031250.000000 -0.009424 -0.015005 0.318781 -0.380251 0.318902 -0.380185 -0.007932 -0.011284 
762375000.000000 -0.009556 -0.015216 0.317372 -0.381228 0.317183 -0.381530 -0.007979 -0.011414 
766718750.000000 -0.009656 -0.015181 0.315166 -0.383071 0.314929 -0.382996 -0.008013 -0.011564 
771062500.000000 -0.009813 -0.015201 0.313125 -0.384957 0.313740 -0.385284 -0.007867 -0.012381 
775406250.000000 -0.009978 -0.015235 0.311214 -0.386414 0.311320 -0.386383 -0.008353 -0.011815 
779750000.000000 -0.009956 -0.015230 0.309837 -0.387698 0.309927 -0.388001 -0.007829 -0.011563 
784093750.000000 -0.010166 -0.015249 0.307447 -0.389312 0.307149 -0.389671 -0.008627 -0.011563 
788437500.000000 -0.010225 -0.015393 0.305812 -0.390597 0.305680 -0.390895 -0.008337 -0.011328 
792781250.000000 -0.010516 -0.015282 0.303687 -0.392217 0.304183 -0.392609 -0.008741 -0.011686 
797125000.000000 -0.010463 -0.015430 0.301711 -0.393281 0.301902 -0.393557 -0.008818 -0.011830 
801468750.000000 -0.010634 -0.015481 0.299815 -0.395394 0.299719 -0.395800 -0.008665 -0.011515 
805812500.000000 -0.010730 -0.015508 0.297776 -0.396792 0.297605 -0.397043 -0.009013 -0.011636 
810156250.000000 -0.010895 -0.015490 0.295617 -0.398196 0.295586 -0.397871 -0.009297 -0.011373 
814500000.000000 -0.010947 -0.015658 0.293807 -0.399844 0.293679 -0.399956 -0.009321 -0.011751 
818843750.000000 -0.011189 -0.015666 0.292117 -0.401546 0.291786 -0.401321 -0.009399 -0.011707 
823187500.000000 -0.011188 -0.015742 0.289511 -0.402330 0.289673 -0.402815 -0.009812 -0.011622 
827531250.000000 -0.011435 -0.015725 0.287034 -0.404153 0.287501 -0.404197 -0.009668 -0.011398 
831875000.000000 -0.011568 -0.015824 0.285540 -0.405465 0.285321 -0.406182 -0.009332 -0.011726 
836218750.000000 -0.011644 -0.015899 0.283937 -0.406181 0.283772 -0.406211 -0.009511 -0.011677 
840562500.000000 -0.011849 -0.015892 0.282090 -0.408144 0.281319 -0.407593 -0.009658 -0.011963 
844906250.000000 -0.011858 -0.015874 0.279565 -0.409456 0.279560 -0.409628 -0.010076 -0.011499 
849250000.000000 -0.012000 -0.016098 0.277849 -0.411413 0.277706 -0.411021 -0.009965 -0.011713 
853593750.000000 -0.012163 -0.016032 0.275209 -0.412396 0.275068 -0.412490 -0.010557 -0.011511 
857937500.000000 -0.012262 -0.016139 0.273549 -0.413900 0.273268 -0.413751 -0.010304 -0.011972 
862281250.000000 -0.012378 -0.016079 0.270848 -0.414342 0.270947 -0.414926 -0.010877 -0.011626 
866625000.000000 -0.012449 -0.016135 0.269213 -0.416352 0.269089 -0.416564 -0.010330 -0.011551 
870968750.000000 -0.012581 -0.016137 0.267104 -0.417509 0.266982 -0.417538 -0.010779 -0.011531 
875312500.000000 -0.012768 -0.016160 0.264730 -0.418970 0.264774 -0.419040 -0.010758 -0.011994 
879656250.000000 -0.012928 -0.016330 0.262956 -0.420595 0.262482 -0.420282 -0.010884 -0.011379 
884000000.000000 -0.013022 -0.016225 0.260518 -0.421602 0.260598 -0.421732 -0.011536 -0.011511 
888343750.000000 -0.013075 -0.016291 0.258806 -0.422818 0.258417 -0.423056 -0.011251 -0.011613 
892687500.000000 -0.013254 -0.016304 0.257182 -0.423889 0.256215 -0.423335 -0.010979 -0.011652 
897031250.000000 -0.013419 -0.016378 0.254565 -0.424979 0.254082 -0.424927 -0.011281 -0.011752 
901375000.000000 -0.013581 -0.016443 0.252558 -0.426693 0.252491 -0.426878 -0.011521 -0.011418 
905718750.000000 -0.013719 -0.016359 0.250357 -0.427552 0.250237 -0.427848 -0.011757 -0.011847 
910062500.000000 -0.013905 -0.016549 0.248350 -0.428769 0.248467 -0.429377 -0.011579 -0.011760 
914406250.000000 -0.014073 -0.016554 0.245642 -0.429989 0.245642 -0.430294 -0.011613 -0.012144 
918750000.000000 -0.014107 -0.016512 0.244245 -0.431153 0.244067 -0.431765 -0.012020 -0.012255 
923093750.000000 -0.014223 -0.016575 0.242179 -0.432061 0.241749 -0.432366 -0.012485 -0.011528 
927437500.000000 -0.014263 -0.016617 0.239723 -0.434145 0.239487 -0.433718 -0.012360 -0.011851 
931781250.000000 -0.014417 -0.016608 0.237522 -0.435972 0.237660 -0.435659 -0.012162 -0.011665 
936125000.000000 -0.014663 -0.016564 0.235029 -0.435913 0.235523 -0.435725 -0.012334 -0.011533 
940468750.000000 -0.014782 -0.016539 0.232928 -0.437102 0.233193 -0.437529 -0.012874 -0.011849 
944812500.000000 -0.014872 -0.016572 0.231089 -0.438974 0.231089 -0.438502 -0.012157 -0.011983 
