! Params: S11 S21 S12 S22
! Start frequency: 0.050000000 GHz
! Stop frequency:  7.000000000 GHz
! Points: 1601
!
# HZ S DB R 50
50000000.000000 -46.341800 -122.238280 -6.027830 -3.361820 -6.030520 -3.346800 -52.984380 -117.062500 
54343750.000000 -55.908200 5.603030 -6.023930 -3.723020 -6.021730 -3.703860 -51.140620 -17.103520 
58687500.000000 -54.001950 -61.126950 -6.012700 -3.941410 -6.012210 -3.957890 -41.412110 149.523440 
63031250.000000 -51.730470 -98.632810 -6.021730 -4.206540 -6.020020 -4.183110 -45.488280 -48.119140 
67375000.000000 -57.574220 -81.937500 -6.029300 -4.559330 -6.026610 -4.526370 -46.058590 -63.472660 
71718750.000000 -59.615230 -101.792970 -6.017330 -4.847900 -6.020260 -4.817630 -47.781250 -100.285160 
76062500.000000 -55.210940 -115.496090 -6.022710 -5.074460 -6.022220 -5.064700 -60.425780 143.890620 
80406250.000000 -55.835940 -99.789060 -6.020750 -5.415040 -6.022460 -5.432860 -55.726560 136.781250 
84750000.000000 -56.884770 -99.867190 -6.024170 -5.648440 -6.022460 -5.654050 -43.234380 -88.558590 
89093750.000000 -58.277340 -89.695310 -6.021730 -5.973880 -6.023190 -5.950680 -40.796880 -40.787110 
93437500.000000 -54.291020 -63.003910 -6.024660 -6.254150 -6.029790 -6.243160 -46.052730 -87.230470 
97781250.000000 -53.404300 -54.285160 -6.035890 -6.571290 -6.024660 -6.538330 -61.333980 150.125000 
102125000.000000 -53.205080 -89.046880 -6.040040 -6.845950 -6.030030 -6.841800 -45.923830 -47.345700 
106468750.000000 -55.509770 -94.300780 -6.019530 -7.119140 -6.032960 -7.116460 -50.636720 -12.236330 
110812500.000000 -53.861330 -104.632810 -6.021240 -7.392580 -6.030520 -7.385740 -49.869140 -35.677730 
115156250.000000 -51.806640 -84.324220 -6.033690 -7.724850 -6.030030 -7.700200 -49.982420 -86.273440 
119500000.000000 -50.457030 -77.496090 -6.033940 -7.976070 -6.029300 -7.954100 -49.513670 -69.714840 
123843750.000000 -56.738280 -100.738280 -6.031740 -8.274410 -6.021730 -8.326660 -45.224610 -54.789060 
128187500.000000 -50.703120 -84.761720 -6.030270 -8.584470 -6.030760 -8.595700 -48.019530 -60.283200 
132531250.000000 -52.318360 -83.304690 -6.034180 -8.851070 -6.036380 -8.813960 -51.636720 -108.648440 
136875000.000000 -53.066410 -85.093750 -6.033450 -9.106450 -6.040530 -9.104000 -54.384770 -116.121090 
141218750.000000 -50.685550 -83.800780 -6.028320 -9.425290 -6.027100 -9.476070 -48.527340 -35.855470 
145562500.000000 -51.466800 -91.113280 -6.036620 -9.658690 -6.038570 -9.646000 -60.443360 -86.210940 
149906250.000000 -50.343750 -92.152340 -6.039310 -10.027830 -6.030270 -9.968750 -50.810550 -30.527340 
154250000.000000 -49.990230 -90.316410 -6.031740 -10.284670 -6.034180 -10.312500 -50.580080 -56.689450 
158593750.000000 -50.957030 -90.300780 -6.033690 -10.570310 -6.027100 -10.558110 -51.992190 -96.074220 
162937500.000000 -49.773440 -86.550780 -6.025390 -10.876460 -6.029790 -10.913570 -47.529300 -57.216800 
167281250.000000 -50.064450 -101.019530 -6.037110 -11.198240 -6.037110 -11.213380 -48.126950 -51.292970 
171625000.000000 -49.083980 -88.109380 -6.034670 -11.474120 -6.027340 -11.411130 -48.544920 -51.994140 
175968750.000000 -50.333980 -93.488280 -6.039060 -11.712890 -6.041260 -11.675780 -54.460940 -53.017580 
180312500.000000 -49.238280 -91.117190 -6.035890 -11.969730 -6.043700 -11.943850 -47.138670 -87.269530 
184656250.000000 -49.146480 -91.636720 -6.038820 -12.359860 -6.027100 -12.270510 -50.216800 -78.546880 
189000000.000000 -48.701170 -92.378910 -6.037600 -12.644040 -6.035890 -12.527340 -47.773440 -59.419920 
193343750.000000 -48.607420 -97.789060 -6.030760 -12.848630 -6.029050 -12.873540 -48.498050 -81.371090 
197687500.000000 -48.521480 -92.000000 -6.033690 -13.153810 -6.037600 -13.115230 -55.576170 -66.460940 
202031250.000000 -47.617190 -93.890620 -6.031980 -13.490230 -6.031010 -13.422850 -49.042970 -79.917970 
206375000.000000 -47.697270 -92.925780 -6.029540 -13.718260 -6.035160 -13.750980 -47.730470 -92.628910 
210718750.000000 -47.277340 -94.585940 -6.039790 -14.018550 -6.040770 -13.980470 -47.646480 -73.625000 
215062500.000000 -46.875000 -95.707030 -6.044190 -14.305660 -6.040040 -14.278320 -46.921880 -60.341800 
219406250.000000 -47.064450 -94.703120 -6.035640 -14.582030 -6.044680 -14.576170 -47.285160 -75.160160 
223750000.000000 -47.152340 -96.234380 -6.037840 -14.892090 -6.040040 -14.853520 -45.224610 -73.175780 
228093750.000000 -46.615230 -93.152340 -6.035160 -15.150390 -6.047850 -15.125490 -47.904300 -88.660160 
232437500.000000 -46.259770 -89.828120 -6.039310 -15.455080 -6.042480 -15.545900 -47.355470 -82.410160 
236781250.000000 -45.908200 -90.863280 -6.047120 -15.725590 -6.045410 -15.740720 -48.746090 -55.976560 
241125000.000000 -45.410160 -92.109380 -6.044920 -16.008790 -6.036620 -15.930180 -47.880860 -78.660160 
245468750.000000 -45.773440 -94.468750 -6.045650 -16.291990 -6.043950 -16.305660 -46.158200 -71.742190 
249812500.000000 -45.976560 -95.167970 -6.044430 -16.606450 -6.041750 -16.602540 -46.140620 -61.513670 
254156250.000000 -45.251950 -95.511720 -6.046630 -16.871090 -6.043700 -16.912110 -47.609380 -86.503910 
258500000.000000 -45.878910 -95.082030 -6.052980 -17.155270 -6.049070 -17.166990 -45.591800 -81.808590 
262843750.000000 -45.025390 -95.734380 -6.044920 -17.364260 -6.042480 -17.414060 -45.582030 -94.902340 
267187500.000000 -45.375000 -96.574220 -6.047850 -17.674800 -6.055420 -17.772460 -46.728520 -71.132810 
271531250.000000 -45.246090 -97.503910 -6.058350 -17.996090 -6.052980 -17.983400 -45.335940 -79.007810 
275875000.000000 -45.070310 -93.804690 -6.046140 -18.311520 -6.047850 -18.309570 -45.527340 -77.988280 
280218750.000000 -44.316410 -96.792970 -6.048340 -18.568360 -6.051510 -18.552730 -43.812500 -79.082030 
284562500.000000 -44.675780 -97.011720 -6.053220 -18.952150 -6.048580 -18.834960 -45.109380 -79.718750 
288906250.000000 -44.460940 -94.429690 -6.055180 -19.141600 -6.041990 -19.185550 -48.960940 -69.968750 
293250000.000000 -44.107420 -97.753910 -6.041500 -19.467770 -6.048100 -19.484380 -46.214840 -91.640620 
297593750.000000 -43.884770 -98.363280 -6.048830 -19.729490 -6.053470 -19.722660 -45.617190 -83.195310 
301937500.000000 -43.751950 -97.246090 -6.051510 -20.138670 -6.046140 -20.031250 -46.250000 -81.871090 
306281250.000000 -43.750000 -97.707030 -6.054690 -20.322270 -6.053220 -20.400390 -46.480470 -97.148440 
310625000.000000 -43.671880 -98.132810 -6.054200 -20.620120 -6.046880 -20.588870 -46.087890 -100.609380 
314968750.000000 -43.185550 -99.835940 -6.052000 -20.860350 -6.050050 -20.903320 -44.871090 -87.648440 
319312500.000000 -43.498050 -100.453120 -6.056880 -21.191410 -6.054200 -21.184570 -44.820310 -71.601560 
323656250.000000 -43.132810 -99.160160 -6.041750 -21.404300 -6.052490 -21.455080 -45.882810 -81.113280 
328000000.000000 -42.939450 -99.437500 -6.043950 -21.785160 -6.048340 -21.795900 -44.386720 -83.367190 
332343750.000000 -42.781250 -100.050780 -6.047850 -22.019530 -6.043700 -22.045900 -45.330080 -77.632810 
336687500.000000 -42.728520 -98.460940 -6.057130 -22.303710 -6.055910 -22.349610 -45.302730 -89.386720 
341031250.000000 -42.630860 -99.296880 -6.049070 -22.624020 -6.046140 -22.555660 -43.945310 -89.191410 
345375000.000000 -42.447270 -100.804690 -6.050540 -22.880860 -6.050540 -22.880860 -42.794920 -83.734380 
349718750.000000 -42.289060 -100.890620 -6.050290 -23.150390 -6.049800 -23.140620 -43.837890 -95.144530 
354062500.000000 -42.171880 -100.484380 -6.056640 -23.464840 -6.048340 -23.485350 -44.478520 -92.484380 
358406250.000000 -42.183590 -101.062500 -6.054440 -23.728520 -6.049560 -23.705080 -43.582030 -83.289060 
362750000.000000 -42.009770 -101.746090 -6.058590 -24.001950 -6.063230 -24.003910 -44.490230 -89.816410 
367093750.000000 -42.076170 -100.878910 -6.045170 -24.388670 -6.055420 -24.336910 -44.101560 -92.660160 
371437500.000000 -41.677730 -101.304690 -6.058590 -24.615230 -6.061520 -24.612300 -43.314450 -86.894530 
375781250.000000 -41.951170 -101.820310 -6.052250 -24.933590 -6.048580 -24.908200 -44.072270 -91.039060 
380125000.000000 -41.625000 -101.808590 -6.045900 -25.178710 -6.056150 -25.252930 -43.208980 -86.195310 
384468750.000000 -41.416020 -101.386720 -6.055180 -25.467770 -6.050050 -25.446290 -43.929690 -99.089840 
388812500.000000 -41.501950 -102.679690 -6.047120 -25.784180 -6.054930 -25.722660 -43.964840 -90.707030 
393156250.000000 -41.302730 -102.914060 -6.057860 -26.041990 -6.052730 -26.000000 -44.044920 -99.394530 
397500000.000000 -41.148440 -103.609380 -6.057130 -26.334960 -6.057620 -26.352540 -42.164060 -92.457030 
401843750.000000 -41.062500 -103.593750 -6.071530 -26.619140 -6.067380 -26.603520 -44.304690 -91.078120 
406187500.000000 -40.990230 -104.074220 -6.052000 -26.850590 -6.058840 -26.846680 -43.917970 -95.875000 
410531250.000000 -40.896480 -103.691410 -6.061040 -27.129880 -6.056640 -27.198240 -43.769530 -97.050780 
414875000.000000 -40.818360 -103.179690 -6.059810 -27.458010 -6.057620 -27.509770 -42.404300 -98.207030 
419218750.000000 -40.640620 -105.035160 -6.058110 -27.790040 -6.058110 -27.752930 -42.531250 -104.285160 
423562500.000000 -40.474610 -104.496090 -6.060300 -28.063480 -6.054690 -28.012700 -42.738280 -97.464840 
427906250.000000 -40.458980 -104.562500 -6.060550 -28.319340 -6.060790 -28.272460 -42.492190 -101.011720 
432250000.000000 -40.519530 -106.093750 -6.052250 -28.553710 -6.053960 -28.616210 -42.972660 -99.554690 
436593750.000000 -40.357420 -104.218750 -6.067630 -28.909180 -6.061040 -28.893550 -42.255860 -104.449220 
440937500.000000 -40.251950 -105.460940 -6.060550 -29.178710 -6.053710 -29.162110 -41.484380 -106.097660 
445281250.000000 -40.080080 -104.906250 -6.059330 -29.499020 -6.058350 -29.448240 -42.472660 -99.503910 
449625000.000000 -39.908200 -106.492190 -6.051270 -29.721680 -6.052730 -29.725590 -42.250000 -97.992190 
453968750.000000 -39.816410 -106.195310 -6.056400 -30.083980 -6.051510 -30.063480 -41.603520 -99.128910 
458312500.000000 -39.644530 -105.886720 -6.052250 -30.341800 -6.061040 -30.327150 -42.097660 -96.023440 
462656250.000000 -39.839840 -106.218750 -6.068600 -30.672850 -6.057370 -30.575200 -41.462890 -102.371090 
467000000.000000 -39.718750 -107.082030 -6.067380 -30.925780 -6.070310 -30.886720 -41.265620 -98.617190 
471343750.000000 -39.496090 -107.226560 -6.068850 -31.229490 -6.064210 -31.163090 -41.781250 -100.941410 
475687500.000000 -39.455080 -106.761720 -6.060300 -31.494140 -6.069090 -31.474610 -41.763670 -101.492190 
480031250.000000 -39.287110 -107.097660 -6.068360 -31.730470 -6.056150 -31.730470 -41.628910 -102.250000 
484375000.000000 -39.298830 -107.906250 -6.062260 -32.076170 -6.057370 -32.037110 -40.804690 -102.410160 
488718750.000000 -39.292970 -107.921880 -6.066410 -32.312500 -6.072510 -32.242190 -41.177730 -100.406250 
493062500.000000 -38.994140 -108.339840 -6.070310 -32.603520 -6.071780 -32.599610 -41.484380 -104.085940 
497406250.000000 -39.023440 -108.117190 -6.069340 -32.853520 -6.054930 -32.859380 -40.787110 -101.542970 
501750000.000000 -38.984380 -108.796880 -6.068120 -33.171880 -6.058840 -33.191410 -40.826170 -103.886720 
506093750.000000 -38.892580 -108.101560 -6.062990 -33.392580 -6.074710 -33.408200 -40.966800 -101.656250 
510437500.000000 -38.833980 -108.843750 -6.071290 -33.802730 -6.075200 -33.755860 -40.947270 -100.863280 
514781250.000000 -38.712890 -108.984380 -6.058110 -34.001950 -6.055180 -34.025390 -40.445310 -107.101560 
519125000.000000 -38.621090 -109.128910 -6.077390 -34.292970 -6.072020 -34.300780 -40.283200 -104.503910 
523468750.000000 -38.568360 -109.625000 -6.068360 -34.593750 -6.065190 -34.578120 -40.568360 -106.261720 
527812500.000000 -38.382810 -109.964840 -6.067630 -34.857420 -6.071530 -34.876950 -41.150390 -106.707030 
532156250.000000 -38.308590 -110.316410 -6.079590 -35.156250 -6.069580 -35.148440 -41.134770 -106.277340 
536500000.000000 -38.328120 -109.750000 -6.060300 -35.470700 -6.070560 -35.488280 -40.843750 -104.847660 
540843750.000000 -38.291020 -110.652340 -6.076900 -35.673830 -6.077390 -35.771480 -39.902340 -109.546880 
545187500.000000 -38.183590 -110.902340 -6.076660 -35.994140 -6.075200 -36.013670 -40.054690 -107.082030 
549531250.000000 -37.957030 -110.769530 -6.067140 -36.294920 -6.078120 -36.332030 -40.642580 -109.863280 
553875000.000000 -37.972660 -111.226560 -6.079590 -36.583980 -6.084230 -36.597660 -40.457030 -107.757810 
558218750.000000 -37.835940 -111.589840 -6.064700 -36.835940 -6.075200 -36.867190 -40.236330 -110.054690 
562562500.000000 -37.763670 -111.128910 -6.069820 -37.152340 -6.078610 -37.111330 -39.957030 -113.375000 
566906250.000000 -37.828120 -112.015620 -6.073240 -37.460940 -6.076420 -37.451170 -39.873050 -109.105470 
571250000.000000 -37.730470 -111.886720 -6.066410 -37.767580 -6.070070 -37.724610 -39.708980 -110.718750 
575593750.000000 -37.705080 -112.417970 -6.069090 -37.998050 -6.078610 -38.019530 -39.771480 -110.218750 
579937500.000000 -37.494140 -112.625000 -6.069820 -38.240230 -6.077150 -38.279300 -39.556640 -115.203120 
584281250.000000 -37.466800 -112.574220 -6.073240 -38.564450 -6.070070 -38.646480 -39.787110 -110.066410 
588625000.000000 -37.457030 -113.410160 -6.078120 -38.814450 -6.082030 -38.917970 -39.390620 -111.359380 
592968750.000000 -37.326170 -113.585940 -6.079350 -39.185550 -6.079350 -39.218750 -39.742190 -111.781250 
597312500.000000 -37.308590 -113.398440 -6.064940 -39.433590 -6.067380 -39.447270 -39.275390 -114.984380 
601656250.000000 -37.152340 -113.429690 -6.062990 -39.742190 -6.078610 -39.718750 -39.220700 -112.968750 
606000000.000000 -37.125000 -114.097660 -6.067140 -40.041020 -6.064450 -40.082030 -39.378910 -112.476560 
610343750.000000 -37.150390 -114.101560 -6.073730 -40.298830 -6.077880 -40.335940 -39.144530 -114.902340 
614687500.000000 -36.951170 -114.410160 -6.089110 -40.640620 -6.081050 -40.578120 -39.193360 -112.742190 
619031250.000000 -36.923830 -114.339840 -6.080810 -40.837890 -6.066410 -40.900390 -39.070310 -112.464840 
623375000.000000 -36.861330 -115.023440 -6.068360 -41.164060 -6.072020 -41.222660 -38.781250 -113.597660 
627718750.000000 -36.750000 -115.796880 -6.072510 -41.453120 -6.073000 -41.439450 -38.699220 -115.734380 
632062500.000000 -36.701170 -115.156250 -6.084470 -41.697270 -6.080320 -41.697270 -38.939450 -116.390620 
636406250.000000 -36.626950 -115.785160 -6.079350 -41.990230 -6.085940 -42.029300 -38.937500 -115.660160 
640750000.000000 -36.662110 -115.765620 -6.072020 -42.257810 -6.081050 -42.312500 -38.605470 -115.144530 
645093750.000000 -36.558590 -115.906250 -6.084230 -42.585940 -6.074950 -42.572270 -38.843750 -117.500000 
649437500.000000 -36.410160 -116.257810 -6.095210 -42.833980 -6.077390 -42.859380 -38.386720 -117.546880 
653781250.000000 -36.433590 -116.195310 -6.074950 -43.105470 -6.074220 -43.150390 -38.775390 -114.203120 
658125000.000000 -36.304690 -116.867190 -6.087160 -43.433590 -6.081540 -43.355470 -38.107420 -114.636720 
662468750.000000 -36.265620 -117.015620 -6.075680 -43.666020 -6.074710 -43.720700 -38.453120 -115.480470 
666812500.000000 -36.224610 -117.351560 -6.073240 -43.992190 -6.087650 -44.005860 -38.392580 -113.824220 
671156250.000000 -36.212890 -117.496090 -6.075200 -44.292970 -6.084960 -44.339840 -38.439450 -120.351560 
675500000.000000 -36.066410 -117.648440 -6.074220 -44.625000 -6.075200 -44.560550 -38.191410 -116.875000 
679843750.000000 -36.093750 -118.156250 -6.078860 -44.824220 -6.079830 -44.871090 -38.447270 -119.195310 
684187500.000000 -35.960940 -118.289060 -6.081300 -45.140620 -6.069090 -45.195310 -38.527340 -119.265620 
688531250.000000 -35.873050 -118.601560 -6.079100 -45.427730 -6.071530 -45.417970 -37.839840 -118.078120 
692875000.000000 -35.843750 -118.359380 -6.084230 -45.718750 -6.078860 -45.708980 -37.636720 -118.875000 
697218750.000000 -35.826170 -119.226560 -6.081790 -45.974610 -6.076420 -46.003910 -38.056640 -118.566410 
701562500.000000 -35.750000 -119.179690 -6.078610 -46.273440 -6.078610 -46.283200 -38.068360 -119.894530 
705906250.000000 -35.685550 -119.558590 -6.080080 -46.570310 -6.082030 -46.578120 -37.451170 -122.375000 
710250000.000000 -35.636720 -119.824220 -6.080320 -46.800780 -6.080810 -46.816410 -37.578120 -121.074220 
714593750.000000 -35.589840 -119.179690 -6.081050 -47.158200 -6.080320 -47.158200 -37.873050 -120.574220 
718937500.000000 -35.539060 -120.156250 -6.085690 -47.369140 -6.084230 -47.419920 -38.132810 -119.765620 
723281250.000000 -35.470700 -120.199220 -6.076660 -47.730470 -6.079830 -47.734380 -37.558590 -123.109380 
727625000.000000 -35.337890 -120.621090 -6.086430 -47.974610 -6.085450 -48.003910 -37.572270 -120.367190 
731968750.000000 -35.367190 -120.507810 -6.078610 -48.324220 -6.073970 -48.332030 -37.652340 -122.359380 
736312500.000000 -35.330080 -120.777340 -6.083980 -48.556640 -6.083250 -48.570310 -37.330080 -121.578120 
740656250.000000 -35.208980 -121.667970 -6.088130 -48.841800 -6.088620 -48.857420 -37.419920 -119.964840 
745000000.000000 -35.107420 -121.390620 -6.079830 -49.123050 -6.085690 -49.126950 -37.498050 -126.179690 
749343750.000000 -35.087890 -121.613280 -6.074710 -49.373050 -6.085450 -49.423830 -37.300780 -122.636720 
753687500.000000 -35.054690 -122.332030 -6.083010 -49.699220 -6.084230 -49.710940 -37.091800 -123.007810 
758031250.000000 -35.031250 -122.132810 -6.086910 -50.025390 -6.086430 -50.009770 -37.207030 -125.105470 
762375000.000000 -34.910160 -122.128910 -6.089600 -50.222660 -6.087650 -50.261720 -37.123050 -124.957030 
766718750.000000 -34.898440 -122.457030 -6.089360 -50.554690 -6.093020 -50.570310 -37.035160 -124.718750 
771062500.000000 -34.849610 -122.843750 -6.086430 -50.875000 -6.075200 -50.843750 -36.671880 -122.433590 
775406250.000000 -34.792970 -123.222660 -6.087650 -51.152340 -6.086910 -51.140620 -36.791020 -125.261720 
779750000.000000 -34.800780 -123.171880 -6.085210 -51.369140 -6.080080 -51.382810 -37.099610 -124.101560 
784093750.000000 -34.738280 -123.691410 -6.089110 -51.701170 -6.087400 -51.753910 -36.816410 -126.726560 
788437500.000000 -34.666020 -123.593750 -6.089110 -51.941410 -6.086430 -51.974610 -37.037110 -126.351560 
792781250.000000 -34.632810 -124.531250 -6.089600 -52.250000 -6.078860 -52.232420 -36.716800 -126.796880 
797125000.000000 -34.589840 -124.140620 -6.095950 -52.505860 -6.090090 -52.507810 -36.621090 -126.699220 
801468750.000000 -34.525390 -124.484380 -6.086670 -52.828120 -6.082030 -52.865230 -36.826170 -126.960940 
805812500.000000 -34.490230 -124.679690 -6.088620 -53.113280 -6.086910 -53.146480 -36.642580 -127.761720 
810156250.000000 -34.453120 -125.121090 -6.091550 -53.410160 -6.096440 -53.390620 -36.660160 -129.265620 
814500000.000000 -34.376950 -124.957030 -6.087160 -53.691410 -6.086910 -53.710940 -36.478520 -128.421880 
818843750.000000 -34.310550 -125.535160 -6.080570 -53.964840 -6.087160 -53.980470 -36.470700 -128.757810 
823187500.000000 -34.283200 -125.402340 -6.096190 -54.261720 -6.087650 -54.279300 -36.357420 -130.171880 
827531250.000000 -34.224610 -126.023440 -6.095460 -54.617190 -6.090090 -54.576170 -36.509770 -130.304690 
831875000.000000 -34.154300 -126.167970 -6.091800 -54.845700 -6.083740 -54.914060 -36.486330 -128.515620 
836218750.000000 -34.107420 -126.218750 -6.097660 -55.044920 -6.098880 -55.062500 -36.443360 -129.164060 
840562500.000000 -34.056640 -126.707030 -6.087890 -55.349610 -6.103520 -55.386720 -36.263670 -128.914060 
844906250.000000 -34.060550 -126.761720 -6.093990 -55.675780 -6.091550 -55.687500 -36.312500 -131.226560 
849250000.000000 -33.945310 -126.703120 -6.082520 -55.966800 -6.089600 -55.955080 -36.261720 -130.390620 
853593750.000000 -33.925780 -127.187500 -6.093990 -56.283200 -6.093990 -56.302730 -36.126950 -132.523440 
857937500.000000 -33.863280 -127.226560 -6.088130 -56.539060 -6.093020 -56.556640 -36.029300 -130.718750 
862281250.000000 -33.853520 -127.589840 -6.107670 -56.828120 -6.098140 -56.855470 -35.960940 -133.093750 
866625000.000000 -33.816410 -127.652340 -6.093750 -57.113280 -6.091800 -57.138670 -36.195310 -131.804690 
