! Params: S11 S21 S12 S22
! Start frequency: 0.050000000 GHz
! Stop frequency:  7.000000000 GHz
! Points: 1601
!
# HZ S MA R 50
50000000.000000 0.004818 -122.238280 0.499584 -3.361820 0.499429 -3.346800 0.002243 -117.062500 
54343750.000000 0.001602 5.603030 0.499808 -3.723020 0.499935 -3.703860 0.002773 -17.103520 
58687500.000000 0.001995 -61.126950 0.500455 -3.941410 0.500483 -3.957890 0.008500 149.523440 
63031250.000000 0.002591 -98.632810 0.499935 -4.206540 0.500033 -4.183110 0.005316 -48.119140 
67375000.000000 0.001322 -81.937500 0.499499 -4.559330 0.499654 -4.526370 0.004978 -63.472660 
71718750.000000 0.001045 -101.792970 0.500188 -4.847900 0.500020 -4.817630 0.004083 -100.285160 
76062500.000000 0.001736 -115.496090 0.499879 -5.074460 0.499907 -5.064700 0.000952 143.890620 
80406250.000000 0.001615 -99.789060 0.499991 -5.415040 0.499893 -5.432860 0.001636 136.781250 
84750000.000000 0.001431 -99.867190 0.499795 -5.648440 0.499893 -5.654050 0.006891 -88.558590 
89093750.000000 0.001219 -89.695310 0.499935 -5.973880 0.499851 -5.950680 0.009123 -40.787110 
93437500.000000 0.001930 -63.003910 0.499766 -6.254150 0.499471 -6.243160 0.004982 -87.230470 
97781250.000000 0.002137 -54.285160 0.499121 -6.571290 0.499766 -6.538330 0.000858 150.125000 
102125000.000000 0.002186 -89.046880 0.498882 -6.845950 0.499457 -6.841800 0.005056 -47.345700 
106468750.000000 0.001677 -94.300780 0.500062 -7.119140 0.499289 -7.116460 0.002939 -12.236330 
110812500.000000 0.002027 -104.632810 0.499963 -7.392580 0.499429 -7.385740 0.003210 -35.677730 
115156250.000000 0.002568 -84.324220 0.499247 -7.724850 0.499457 -7.700200 0.003169 -86.273440 
119500000.000000 0.003000 -77.496090 0.499233 -7.976070 0.499499 -7.954100 0.003344 -69.714840 
123843750.000000 0.001456 -100.738280 0.499359 -8.274410 0.499935 -8.326660 0.005480 -54.789060 
128187500.000000 0.002916 -84.761720 0.499444 -8.584470 0.499415 -8.595700 0.003972 -60.283200 
132531250.000000 0.002421 -83.304690 0.499219 -8.851070 0.499092 -8.813960 0.002619 -108.648440 
136875000.000000 0.002222 -85.093750 0.499261 -9.106450 0.498854 -9.104000 0.001909 -116.121090 
141218750.000000 0.002922 -83.800780 0.499556 -9.425290 0.499626 -9.476070 0.003747 -35.855470 
145562500.000000 0.002671 -91.113280 0.499079 -9.658690 0.498967 -9.646000 0.000950 -86.210940 
149906250.000000 0.003040 -92.152340 0.498924 -10.027830 0.499444 -9.968750 0.002881 -30.527340 
154250000.000000 0.003166 -90.316410 0.499359 -10.284670 0.499219 -10.312500 0.002958 -56.689450 
158593750.000000 0.002832 -90.300780 0.499247 -10.570310 0.499626 -10.558110 0.002514 -96.074220 
162937500.000000 0.003246 -86.550780 0.499724 -10.876460 0.499471 -10.913570 0.004203 -57.216800 
167281250.000000 0.003139 -101.019530 0.499051 -11.198240 0.499051 -11.213380 0.003923 -51.292970 
171625000.000000 0.003514 -88.109380 0.499191 -11.474120 0.499612 -11.411130 0.003739 -51.994140 
175968750.000000 0.003043 -93.488280 0.498938 -11.712890 0.498812 -11.675780 0.001892 -53.017580 
180312500.000000 0.003452 -91.117190 0.499121 -11.969730 0.498672 -11.943850 0.004396 -87.269530 
184656250.000000 0.003489 -91.636720 0.498952 -12.359860 0.499626 -12.270510 0.003084 -78.546880 
189000000.000000 0.003672 -92.378910 0.499022 -12.644040 0.499121 -12.527340 0.004086 -59.419920 
193343750.000000 0.003712 -97.789060 0.499415 -12.848630 0.499514 -12.873540 0.003759 -81.371090 
197687500.000000 0.003749 -92.000000 0.499247 -13.153810 0.499022 -13.115230 0.001664 -66.460940 
202031250.000000 0.004160 -93.890620 0.499345 -13.490230 0.499401 -13.422850 0.003531 -79.917970 
206375000.000000 0.004122 -92.925780 0.499486 -13.718260 0.499163 -13.750980 0.004107 -92.628910 
210718750.000000 0.004326 -94.585940 0.498897 -14.018550 0.498840 -13.980470 0.004146 -73.625000 
215062500.000000 0.004532 -95.707030 0.498644 -14.305660 0.498882 -14.278320 0.004507 -60.341800 
219406250.000000 0.004434 -94.703120 0.499135 -14.582030 0.498616 -14.576170 0.004323 -75.160160 
223750000.000000 0.004389 -96.234380 0.499009 -14.892090 0.498882 -14.853520 0.005480 -73.175780 
228093750.000000 0.004669 -93.152340 0.499163 -15.150390 0.498434 -15.125490 0.004025 -88.660160 
232437500.000000 0.004864 -89.828120 0.498924 -15.455080 0.498742 -15.545900 0.004288 -82.410160 
236781250.000000 0.005065 -90.863280 0.498476 -15.725590 0.498574 -15.740720 0.003653 -55.976560 
241125000.000000 0.005364 -92.109380 0.498602 -16.008790 0.499079 -15.930180 0.004036 -78.660160 
245468750.000000 0.005144 -94.468750 0.498560 -16.291990 0.498658 -16.305660 0.004921 -71.742190 
249812500.000000 0.005025 -95.167970 0.498630 -16.606450 0.498784 -16.602540 0.004931 -61.513670 
254156250.000000 0.005463 -95.511720 0.498504 -16.871090 0.498672 -16.912110 0.004164 -86.503910 
258500000.000000 0.005082 -95.082030 0.498140 -17.155270 0.498364 -17.166990 0.005253 -81.808590 
262843750.000000 0.005607 -95.734380 0.498602 -17.364260 0.498742 -17.414060 0.005259 -94.902340 
267187500.000000 0.005386 -96.574220 0.498434 -17.674800 0.498000 -17.772460 0.004609 -71.132810 
271531250.000000 0.005466 -97.503910 0.497832 -17.996090 0.498140 -17.983400 0.005410 -79.007810 
275875000.000000 0.005578 -93.804690 0.498532 -18.311520 0.498434 -18.309570 0.005292 -77.988280 
280218750.000000 0.006084 -96.792970 0.498406 -18.568360 0.498224 -18.552730 0.006447 -79.082030 
284562500.000000 0.005837 -97.011720 0.498126 -18.952150 0.498392 -18.834960 0.005553 -79.718750 
288906250.000000 0.005983 -94.429690 0.498013 -19.141600 0.498770 -19.185550 0.003564 -69.968750 
293250000.000000 0.006232 -97.753910 0.498798 -19.467770 0.498419 -19.484380 0.004889 -91.640620 
297593750.000000 0.006394 -98.363280 0.498378 -19.729490 0.498111 -19.722660 0.005238 -83.195310 
301937500.000000 0.006492 -97.246090 0.498224 -20.138670 0.498532 -20.031250 0.004870 -81.871090 
306281250.000000 0.006494 -97.707030 0.498041 -20.322270 0.498126 -20.400390 0.004742 -97.148440 
310625000.000000 0.006552 -98.132810 0.498070 -20.620120 0.498489 -20.588870 0.004961 -100.609380 
314968750.000000 0.006930 -99.835940 0.498196 -20.860350 0.498308 -20.903320 0.005707 -87.648440 
319312500.000000 0.006685 -100.453120 0.497916 -21.191410 0.498070 -21.184570 0.005741 -71.601560 
323656250.000000 0.006972 -99.160160 0.498784 -21.404300 0.498168 -21.455080 0.005080 -81.113280 
328000000.000000 0.007129 -99.437500 0.498658 -21.785160 0.498406 -21.795900 0.006035 -83.367190 
332343750.000000 0.007260 -100.050780 0.498434 -22.019530 0.498672 -22.045900 0.005414 -77.632810 
336687500.000000 0.007304 -98.460940 0.497902 -22.303710 0.497972 -22.349610 0.005431 -89.386720 
341031250.000000 0.007387 -99.296880 0.498364 -22.624020 0.498532 -22.555660 0.006349 -89.191410 
345375000.000000 0.007545 -100.804690 0.498279 -22.880860 0.498279 -22.880860 0.007249 -83.734380 
349718750.000000 0.007683 -100.890620 0.498294 -23.150390 0.498322 -23.140620 0.006428 -95.144530 
354062500.000000 0.007788 -100.484380 0.497930 -23.464840 0.498406 -23.485350 0.005971 -92.484380 
358406250.000000 0.007777 -101.062500 0.498056 -23.728520 0.498336 -23.705080 0.006621 -83.289060 
362750000.000000 0.007934 -101.746090 0.497818 -24.001950 0.497552 -24.003910 0.005963 -89.816410 
367093750.000000 0.007874 -100.878910 0.498588 -24.388670 0.498000 -24.336910 0.006236 -92.660160 
371437500.000000 0.008244 -101.304690 0.497818 -24.615230 0.497650 -24.612300 0.006828 -86.894530 
375781250.000000 0.007988 -101.820310 0.498181 -24.933590 0.498392 -24.908200 0.006257 -91.039060 
380125000.000000 0.008294 -101.808590 0.498546 -25.178710 0.497958 -25.252930 0.006911 -86.195310 
384468750.000000 0.008496 -101.386720 0.498013 -25.467770 0.498308 -25.446290 0.006361 -99.089840 
388812500.000000 0.008412 -102.679690 0.498476 -25.784180 0.498028 -25.722660 0.006335 -90.707030 
393156250.000000 0.008607 -102.914060 0.497860 -26.041990 0.498154 -26.000000 0.006277 -99.394530 
397500000.000000 0.008761 -103.609380 0.497902 -26.334960 0.497873 -26.352540 0.007795 -92.457030 
401843750.000000 0.008849 -103.593750 0.497077 -26.619140 0.497314 -26.603520 0.006092 -91.078120 
406187500.000000 0.008923 -104.074220 0.498196 -26.850590 0.497804 -26.846680 0.006369 -95.875000 
410531250.000000 0.009019 -103.691410 0.497677 -27.129880 0.497930 -27.198240 0.006479 -97.050780 
414875000.000000 0.009101 -103.179690 0.497748 -27.458010 0.497873 -27.509770 0.007582 -98.207030 
419218750.000000 0.009289 -105.035160 0.497845 -27.790040 0.497845 -27.752930 0.007472 -104.285160 
423562500.000000 0.009468 -104.496090 0.497720 -28.063480 0.498041 -28.012700 0.007296 -97.464840 
427906250.000000 0.009485 -104.562500 0.497706 -28.319340 0.497692 -28.272460 0.007506 -101.011720 
432250000.000000 0.009419 -106.093750 0.498181 -28.553710 0.498083 -28.616210 0.007102 -99.554690 
436593750.000000 0.009597 -104.218750 0.497300 -28.909180 0.497677 -28.893550 0.007713 -104.449220 
440937500.000000 0.009714 -105.460940 0.497706 -29.178710 0.498098 -29.162110 0.008429 -106.097660 
445281250.000000 0.009908 -104.906250 0.497775 -29.499020 0.497832 -29.448240 0.007523 -99.503910 
449625000.000000 0.010106 -106.492190 0.498238 -29.721680 0.498154 -29.725590 0.007718 -97.992190 
453968750.000000 0.010214 -106.195310 0.497943 -30.083980 0.498224 -30.063480 0.008314 -99.128910 
458312500.000000 0.010418 -105.886720 0.498181 -30.341800 0.497677 -30.327150 0.007854 -96.023440 
462656250.000000 0.010186 -106.218750 0.497245 -30.672850 0.497888 -30.575200 0.008450 -102.371090 
467000000.000000 0.010329 -107.082030 0.497314 -30.925780 0.497147 -30.886720 0.008644 -98.617190 
471343750.000000 0.010597 -107.226560 0.497230 -31.229490 0.497496 -31.163090 0.008146 -100.941410 
475687500.000000 0.010647 -106.761720 0.497720 -31.494140 0.497216 -31.474610 0.008162 -101.492190 
480031250.000000 0.010855 -107.097660 0.497258 -31.730470 0.497958 -31.730470 0.008290 -102.250000 
484375000.000000 0.010841 -107.906250 0.497608 -32.076170 0.497888 -32.037110 0.009115 -102.410160 
488718750.000000 0.010848 -107.921880 0.497370 -32.312500 0.497021 -32.242190 0.008732 -100.406250 
493062500.000000 0.011228 -108.339840 0.497147 -32.603520 0.497063 -32.599610 0.008429 -104.085940 
497406250.000000 0.011190 -108.117190 0.497202 -32.853520 0.498028 -32.859380 0.009134 -101.542970 
501750000.000000 0.011240 -108.796880 0.497272 -33.171880 0.497804 -33.191410 0.009093 -103.886720 
506093750.000000 0.011360 -108.101560 0.497566 -33.392580 0.496895 -33.408200 0.008947 -101.656250 
510437500.000000 0.011437 -108.843750 0.497091 -33.802730 0.496867 -33.755860 0.008967 -100.863280 
514781250.000000 0.011597 -108.984380 0.497845 -34.001950 0.498013 -34.025390 0.009500 -107.101560 
519125000.000000 0.011720 -109.128910 0.496742 -34.292970 0.497049 -34.300780 0.009679 -104.503910 
523468750.000000 0.011792 -109.625000 0.497258 -34.593750 0.497440 -34.578120 0.009367 -106.261720 
527812500.000000 0.012046 -109.964840 0.497300 -34.857420 0.497077 -34.876950 0.008760 -106.707030 
532156250.000000 0.012150 -110.316410 0.496616 -35.156250 0.497188 -35.148440 0.008775 -106.277340 
536500000.000000 0.012123 -109.750000 0.497720 -35.470700 0.497132 -35.488280 0.009074 -104.847660 
540843750.000000 0.012174 -110.652340 0.496770 -35.673830 0.496742 -35.771480 0.010113 -109.546880 
545187500.000000 0.012326 -110.902340 0.496783 -35.994140 0.496867 -36.013670 0.009937 -107.082030 
549531250.000000 0.012652 -110.769530 0.497328 -36.294920 0.496700 -36.332030 0.009287 -109.863280 
553875000.000000 0.012629 -111.226560 0.496616 -36.583980 0.496351 -36.597660 0.009487 -107.757810 
558218750.000000 0.012829 -111.589840 0.497468 -36.835940 0.496867 -36.867190 0.009732 -110.054690 
562562500.000000 0.012936 -111.128910 0.497175 -37.152340 0.496672 -37.111330 0.010050 -113.375000 
566906250.000000 0.012841 -112.015620 0.496979 -37.460940 0.496797 -37.451170 0.010147 -109.105470 
571250000.000000 0.012986 -111.886720 0.497370 -37.767580 0.497160 -37.724610 0.010341 -110.718750 
575593750.000000 0.013024 -112.417970 0.497216 -37.998050 0.496672 -38.019530 0.010267 -110.218750 
579937500.000000 0.013344 -112.625000 0.497175 -38.240230 0.496755 -38.279300 0.010524 -115.203120 
584281250.000000 0.013386 -112.574220 0.496979 -38.564450 0.497160 -38.646480 0.010248 -110.066410 
588625000.000000 0.013401 -113.410160 0.496700 -38.814450 0.496476 -38.917970 0.010727 -111.359380 
592968750.000000 0.013605 -113.585940 0.496629 -39.185550 0.496629 -39.218750 0.010301 -111.781250 
597312500.000000 0.013632 -113.398440 0.497454 -39.433590 0.497314 -39.447270 0.010870 -114.984380 
601656250.000000 0.013880 -113.429690 0.497566 -39.742190 0.496672 -39.718750 0.010939 -112.968750 
606000000.000000 0.013924 -114.097660 0.497328 -40.041020 0.497482 -40.082030 0.010741 -112.476560 
610343750.000000 0.013883 -114.101560 0.496951 -40.298830 0.496714 -40.335940 0.011035 -114.902340 
614687500.000000 0.014205 -114.410160 0.496072 -40.640620 0.496532 -40.578120 0.010973 -112.742190 
619031250.000000 0.014250 -114.339840 0.496546 -40.837890 0.497370 -40.900390 0.011130 -112.464840 
623375000.000000 0.014353 -115.023440 0.497258 -41.164060 0.497049 -41.222660 0.011506 -113.597660 
627718750.000000 0.014538 -115.796880 0.497021 -41.453120 0.496993 -41.439450 0.011616 -115.734380 
632062500.000000 0.014620 -115.156250 0.496337 -41.697270 0.496574 -41.697270 0.011299 -116.390620 
636406250.000000 0.014745 -115.785160 0.496629 -41.990230 0.496253 -42.029300 0.011301 -115.660160 
640750000.000000 0.014686 -115.765620 0.497049 -42.257810 0.496532 -42.312500 0.011742 -115.144530 
645093750.000000 0.014862 -115.906250 0.496351 -42.585940 0.496881 -42.572270 0.011424 -117.500000 
649437500.000000 0.015118 -116.257810 0.495723 -42.833980 0.496742 -42.859380 0.012041 -117.546880 
653781250.000000 0.015077 -116.195310 0.496881 -43.105470 0.496923 -43.150390 0.011514 -114.203120 
658125000.000000 0.015303 -116.867190 0.496183 -43.433590 0.496504 -43.355470 0.012435 -114.636720 
662468750.000000 0.015372 -117.015620 0.496839 -43.666020 0.496895 -43.720700 0.011949 -115.480470 
666812500.000000 0.015444 -117.351560 0.496979 -43.992190 0.496155 -44.005860 0.012033 -113.824220 
671156250.000000 0.015465 -117.496090 0.496867 -44.292970 0.496309 -44.339840 0.011968 -120.351560 
675500000.000000 0.015728 -117.648440 0.496923 -44.625000 0.496867 -44.560550 0.012315 -116.875000 
679843750.000000 0.015679 -118.156250 0.496658 -44.824220 0.496602 -44.871090 0.011957 -119.195310 
684187500.000000 0.015920 -118.289060 0.496518 -45.140620 0.497216 -45.195310 0.011848 -119.265620 
688531250.000000 0.016082 -118.601560 0.496644 -45.427730 0.497077 -45.417970 0.012824 -118.078120 
692875000.000000 0.016137 -118.359380 0.496351 -45.718750 0.496658 -45.708980 0.013127 -118.875000 
697218750.000000 0.016169 -119.226560 0.496490 -45.974610 0.496797 -46.003910 0.012507 -118.566410 
701562500.000000 0.016312 -119.179690 0.496672 -46.273440 0.496672 -46.283200 0.012491 -119.894530 
705906250.000000 0.016433 -119.558590 0.496588 -46.570310 0.496476 -46.578120 0.013410 -122.375000 
710250000.000000 0.016526 -119.824220 0.496574 -46.800780 0.496546 -46.816410 0.013216 -121.074220 
714593750.000000 0.016615 -119.179690 0.496532 -47.158200 0.496574 -47.158200 0.012775 -120.574220 
718937500.000000 0.016713 -120.156250 0.496267 -47.369140 0.496351 -47.419920 0.012398 -119.765620 
723281250.000000 0.016845 -120.199220 0.496783 -47.730470 0.496602 -47.734380 0.013246 -123.109380 
727625000.000000 0.017104 -120.621090 0.496225 -47.974610 0.496281 -48.003910 0.013225 -120.367190 
731968750.000000 0.017047 -120.507810 0.496672 -48.324220 0.496937 -48.332030 0.013103 -122.359380 
736312500.000000 0.017120 -120.777340 0.496365 -48.556640 0.496407 -48.570310 0.013599 -121.578120 
740656250.000000 0.017360 -121.667970 0.496128 -48.841800 0.496100 -48.857420 0.013459 -119.964840 
745000000.000000 0.017564 -121.390620 0.496602 -49.123050 0.496267 -49.126950 0.013338 -126.179690 
749343750.000000 0.017604 -121.613280 0.496895 -49.373050 0.496281 -49.423830 0.013645 -122.636720 
753687500.000000 0.017671 -122.332030 0.496420 -49.699220 0.496351 -49.710940 0.013977 -123.007810 
758031250.000000 0.017719 -122.132810 0.496197 -50.025390 0.496225 -50.009770 0.013793 -125.105470 
762375000.000000 0.017968 -122.128910 0.496044 -50.222660 0.496155 -50.261720 0.013927 -124.957030 
766718750.000000 0.017992 -122.457030 0.496057 -50.554690 0.495848 -50.570310 0.014068 -124.718750 
771062500.000000 0.018093 -122.843750 0.496225 -50.875000 0.496867 -50.843750 0.014669 -122.433590 
775406250.000000 0.018212 -123.222660 0.496155 -51.152340 0.496197 -51.140620 0.014469 -125.261720 
779750000.000000 0.018195 -123.171880 0.496295 -51.369140 0.496588 -51.382810 0.013964 -124.101560 
784093750.000000 0.018327 -123.691410 0.496072 -51.701170 0.496169 -51.753910 0.014427 -126.726560 
788437500.000000 0.018480 -123.593750 0.496072 -51.941410 0.496225 -51.974610 0.014065 -126.351560 
792781250.000000 0.018551 -124.531250 0.496044 -52.250000 0.496658 -52.232420 0.014594 -126.796880 
797125000.000000 0.018643 -124.140620 0.495681 -52.505860 0.496016 -52.507810 0.014755 -126.699220 
801468750.000000 0.018782 -124.484380 0.496211 -52.828120 0.496476 -52.865230 0.014411 -126.960940 
805812500.000000 0.018858 -124.679690 0.496100 -53.113280 0.496197 -53.146480 0.014719 -127.761720 
810156250.000000 0.018938 -125.121090 0.495932 -53.410160 0.495653 -53.390620 0.014689 -129.265620 
814500000.000000 0.019105 -124.957030 0.496183 -53.691410 0.496197 -53.710940 0.014999 -128.421880 
818843750.000000 0.019252 -125.535160 0.496560 -53.964840 0.496183 -53.980470 0.015013 -128.757810 
823187500.000000 0.019313 -125.402340 0.495668 -54.261720 0.496155 -54.279300 0.015210 -130.171880 
827531250.000000 0.019443 -126.023440 0.495709 -54.617190 0.496016 -54.576170 0.014946 -130.304690 
831875000.000000 0.019601 -126.167970 0.495918 -54.845700 0.496379 -54.914060 0.014986 -128.515620 
836218750.000000 0.019707 -126.218750 0.495584 -55.044920 0.495514 -55.062500 0.015060 -129.164060 
840562500.000000 0.019823 -126.707030 0.496141 -55.349610 0.495249 -55.386720 0.015375 -128.914060 
844906250.000000 0.019814 -126.761720 0.495793 -55.675780 0.495932 -55.687500 0.015289 -131.226560 
849250000.000000 0.020079 -126.703120 0.496448 -55.966800 0.496044 -55.955080 0.015379 -130.390620 
853593750.000000 0.020124 -127.187500 0.495793 -56.283200 0.495793 -56.302730 0.015619 -132.523440 
857937500.000000 0.020269 -127.226560 0.496128 -56.539060 0.495848 -56.556640 0.015796 -130.718750 
862281250.000000 0.020292 -127.589840 0.495013 -56.828120 0.495556 -56.855470 0.015920 -133.093750 
866625000.000000 0.020379 -127.652340 0.495807 -57.113280 0.495918 -57.138670 0.015497 -131.804690 
870968750.000000 0.020462 -127.941410 0.495640 -57.390620 0.495598 -57.404300 0.015785 -133.070310 
875312500.000000 0.020595 -128.312500 0.495598 -57.712890 0.495681 -57.712890 0.016111 -131.890620 
879656250.000000 0.020828 -128.367190 0.496030 -57.986330 0.495514 -58.013670 0.015746 -133.726560 
884000000.000000 0.020805 -128.750000 0.495598 -58.287110 0.495751 -58.287110 0.016297 -135.062500 
888343750.000000 0.020889 -128.750000 0.495737 -58.529300 0.495737 -58.582030 0.016169 -134.093750 
892687500.000000 0.021012 -129.109380 0.495807 -58.753910 0.494832 -58.816410 0.016010 -133.296880 
897031250.000000 0.021173 -129.328120 0.495389 -59.078120 0.495097 -59.123050 0.016290 -133.828120 
901375000.000000 0.021326 -129.554690 0.495835 -59.378910 0.495960 -59.396480 0.016220 -135.257810 
905718750.000000 0.021350 -129.984380 0.495459 -59.648440 0.495653 -59.677730 0.016690 -134.781250 
910062500.000000 0.021616 -130.039060 0.495500 -59.919920 0.496085 -59.943360 0.016504 -134.554690 
914406250.000000 0.021728 -130.367190 0.495208 -60.261720 0.495472 -60.279300 0.016803 -133.718750 
