# HZ S RI R 50
50000 -1.0067842098182076 0.0011153017447806102
248166 -1.006174928728769 0.00442840579792926
446332 -1.0054439612523787 0.0077487273768852725
644498 -1.0051549662655994 0.011149517613500231
842664 -1.0050452360708364 0.014481014389026327
1040830 -1.0043882428768678 0.017227297350967206
1238996 -1.0037918310691745 0.020354932787176084
1437162 -1.0034141170468516 0.02325987454782127
1635328 -1.002876109656067 0.025990732983152822
1833494 -1.0020559524877648 0.029194786788658375
2031660 -1.00176838980764 0.03213195914966064
2229826 -1.0013439220260976 0.03467199034934392
2427992 -1.0007786288604381 0.03777020385543433
2626158 -1.0004468217453402 0.04017374368900063
2824324 -0.9997982833527883 0.043162483565451874
3022490 -0.9992418600237188 0.04568584083685219
3220656 -0.9984741818329218 0.04859816904997604
3418822 -0.9977206561394698 0.05125952742965386
3616988 -0.9971904467236362 0.05403877920402576
3815154 -0.9966180177851902 0.056630485917703394
4013320 -0.995834219065029 0.0593084159556062
4211486 -0.9950376645435575 0.061983646195783615
4409652 -0.9940868145151401 0.06441032507087249
4607818 -0.9933964223238081 0.06714042051651717
4805984 -0.9929049501080238 0.06960290959433812
5004150 -0.9919489151940186 0.07222780069291514
5202316 -0.9909244067864482 0.07472432558356851
5400482 -0.9903416584194137 0.0772191342059417
5598648 -0.9894742888969045 0.07986170715805861
5796814 -0.9886201270399215 0.08222425433067682
5994980 -0.987659421461512 0.08445997530147394
6193146 -0.9869386417633438 0.08720052144993128
6391312 -0.9859102716906557 0.08970662974597833
6589478 -0.9848381345608361 0.09210987395236654
6787644 -0.984550026274278 0.09359798838738188
6985810 -0.9833702086908046 0.0961213631945155
7183976 -0.9827490470288655 0.09896777364573935
7382142 -0.981700224166055 0.10116965223861381
7580308 -0.9809946599431056 0.10343621396570513
7778474 -0.9798102963405603 0.1058522271955124
7976640 -0.979117828235555 0.1082789037353792
8174806 -0.9781903851534418 0.11009982705129343
8372972 -0.9770134859468044 0.11251438669723268
8571138 -0.9761715134567278 0.11466580976696307
8769304 -0.9751041793122773 0.11692821093872065
8967470 -0.9740652566402871 0.11876885388940353
9165636 -0.9731686938270698 0.12114745447289928
9363802 -0.9723853549799725 0.12334488050532212
9561968 -0.9714493091685139 0.12534871005675216
9760134 -0.9704436777588432 0.1273418078672132
9958300 -0.9698079814231773 0.12954084870142762
10156466 -0.967976971798632 0.13164867317648446
10354632 -0.9670545323802334 0.13356791075056315
10552798 -0.9660461691241133 0.13577543278935073
10750964 -0.9651076466159975 0.1379756063282972
10949130 -0.9640930099431616 0.14017972448644114
11147296 -0.9630667960340629 0.14207472612317798
11345462 -0.9621520693950755 0.14394388120022455
11543628 -0.961148303683412 0.14589672886932037
11741794 -0.9600295222945815 0.14788564654788577
11939960 -0.9590942934634199 0.1498017109375031
12138126 -0.9581103455640871 0.1519097956659754
12336292 -0.9570039922793734 0.15356668874059393
12534458 -0.955924248031724 0.15568790154092102
12732624 -0.9551055939835781 0.15739706129127182
12930790 -0.9541470120958915 0.15931123620164145
13128956 -0.9532388298114454 0.16132665832661935
13327122 -0.9521117632684364 0.16317279963585063
13525288 -0.9511213977487271 0.1650208859216832
13723454 -0.9500729168297845 0.1669760144141851
13921620 -0.9488018735868131 0.16884185968989465
14119786 -0.9480608771693675 0.17045066481798085
14317952 -0.9468319529246911 0.17230661432279473
14516118 -0.9457750514684694 0.17426703538006946
14714284 -0.944843107639742 0.17581728384101158
14912450 -0.9438868549662003 0.17780360827119143
15110616 -0.9428002474851552 0.17944202901537606
15308782 -0.9413602948497594 0.18129937926727888
15506948 -0.9406043598007816 0.1831110835241129
15705114 -0.939531744001078 0.18464612861912305
15903280 -0.9385099661963262 0.18636077191358758
16101446 -0.9374401696013832 0.1881195121673736
16299612 -0.9366588377036488 0.18981717689813293
16497778 -0.9355822351106935 0.19123319659663018
16695944 -0.9345018205636292 0.19332504949025395
16894110 -0.9330866897864665 0.19461956935224467
17092276 -0.9322753797183345 0.19641077756599704
17290442 -0.9314426314102576 0.1979891038290788
17488608 -0.930379039924932 0.19986480357564965
17686774 -0.9296394143488722 0.20162864621358062
17884940 -0.9283287052955264 0.2031231020370391
18083106 -0.927091383377227 0.20441080188077884
18281272 -0.926177608471449 0.2064746946202179
18479438 -0.9251670407673479 0.20800552117500065
18677604 -0.9239941661653075 0.20944648620705394
18875770 -0.923145070005502 0.21104656045784723
19073936 -0.9217865151937135 0.21256243639497213
19272102 -0.9208561294258383 0.2139120959354267
19470268 -0.9198835793392668 0.21551580951518073
19668434 -0.9187472147569371 0.21701172294894344
19866600 -0.9176074718083468 0.21880840926719022
20064766 -0.9166004026011741 0.2204187078578255
20262932 -0.9155462474470061 0.2219481371999832
20461098 -0.9142534236961943 0.22316654321623372
20659264 -0.9132949169926747 0.22464679953692732
20857430 -0.9124799620221374 0.22648404052717702
21055596 -0.9115660814760211 0.22774841296495946
21253762 -0.9103499118889637 0.22924099525612676
21451928 -0.9089356058479902 0.23092041108623035
21650094 -0.9080848529655329 0.2321565462173064
21848260 -0.9070984332393975 0.2337383111644792
22046426 -0.9058740915675512 0.23517068617187112
22244592 -0.9049919581664149 0.2364685962219484
22442758 -0.9039568244006437 0.23771552482791045
22640924 -0.9029617427621202 0.23934749122085083
22839090 -0.9017370336355649 0.24070315025090508
23037256 -0.9008043489891565 0.24200105743039937
23235422 -0.8999735168822897 0.24349372226486066
23433588 -0.8983984226311618 0.2447833497394113
23631754 -0.8980395586687081 0.24618258511208024
23829920 -0.8967618441093705 0.2474401275952972
24028086 -0.8956164185097459 0.24878819900652316
24226252 -0.8946196186085239 0.2504257615086617
24424418 -0.8932607663878046 0.2514850758981898
24622584 -0.8926278199363855 0.25301783603568406
24820750 -0.8917556326270796 0.2542404777806109
25018916 -0.8907418743693375 0.2555941930268214
25217082 -0.889459991841326 0.2570338110089938
25415248 -0.8886629381696207 0.258200962457762
25613414 -0.887638424895949 0.2593713827495892
25811580 -0.886429822760192 0.26096673443003837
26009746 -0.8853046534764225 0.26209056700363625
26207912 -0.8843700991216942 0.2631346055509418
26406078 -0.8835240701674437 0.2648469720496766
26604244 -0.8822121987782577 0.2655134462314514
26802410 -0.8813754938310732 0.26723021454605106
27000576 -0.8804429366358041 0.2688982923155748
27198742 -0.8793842206541188 0.2693534248026331
27396908 -0.8786026218898448 0.2705911911783534
27595074 -0.8775714336336032 0.272263593126237
27793240 -0.876472292015038 0.27313412548182303
27991406 -0.8754684101353883 0.27462609812031596
28189572 -0.8741117837697518 0.27551181320506163
28387738 -0.8733767878306009 0.2767798185189747
28585904 -0.8725463836954229 0.2780635212198391
28784070 -0.871321324819546 0.27924943773169075
28982236 -0.8706526706011414 0.2798414309789514
29180402 -0.8698783834285405 0.28184374945467006
29378568 -0.8686095786398663 0.28252944953335685
29576734 -0.8677662773515005 0.283548264817558
29774900 -0.8663575690445269 0.284885705569434
29973066 -0.865193436713664 0.28567716959534284
30171232 -0.8644839592234874 0.28703202697661034
30369398 -0.863643663383751 0.28843853513469325
30567564 -0.8625173651062521 0.2893546705239978
30765730 -0.8614453003444347 0.2905675528250923
30963896 -0.8606660543459355 0.2918606391766511
31162062 -0.8597303485492499 0.29255927048210084
31360228 -0.8587990025284072 0.29400981100178725
31558394 -0.8576454117497913 0.2949848798864381
31756560 -0.8565408260669212 0.2963546992780333
31954726 -0.8556526152466318 0.2969139376919538
32152892 -0.8546340182896094 0.2984172210449983
32351058 -0.8537808923287259 0.2993298191230459
32549224 -0.8526780661632113 0.3002192209665124
32747390 -0.8518329382863373 0.30150059596031387
32945556 -0.8507322510364121 0.3023742017499433
33143722 -0.8498960937416468 0.3034235797309205
33341888 -0.8492251103801843 0.3046409964123543
33540054 -0.8477492757988856 0.30569793853910976
33738220 -0.8468070237658533 0.30714294956857224
33936386 -0.8460356489216412 0.3078928077256031
34134552 -0.8448928176402594 0.30900401867238103
34332718 -0.8443035423921404 0.30972217285151665
34530884 -0.8431058728115677 0.31073751636016833
34729050 -0.8420718299602861 0.3120003094517087
34927216 -0.841432390032838 0.31281419428018536
35125382 -0.840337624839326 0.31410741502451556
35323548 -0.8394145734817079 0.31480587310344577
35521714 -0.8383591082153516 0.3158635326072553
35719880 -0.8372603524692601 0.31665754245859307
35918046 -0.8364555231168818 0.3174399050827135
36116212 -0.8357510049676001 0.3189237098381592
36314378 -0.8346458666652832 0.3199522935365079
36512544 -0.8336646028712648 0.32107678373297605
36710710 -0.8327999828089462 0.321564371496974
36908876 -0.8317112951675103 0.3221185784018417
37107042 -0.8309079791394892 0.3239811959448411
37305208 -0.8300046358436488 0.32464765499252257
37503374 -0.8295545354892664 0.32557239265837595
37701540 -0.8281332670080382 0.3266595158819125
37899706 -0.8273896733161065 0.3273043475352658
38097872 -0.8262906865884024 0.32841303964438384
38296038 -0.8255379921604364 0.32900090860663067
38494204 -0.8242353547724388 0.3300456443681177
38692370 -0.823595207008422 0.33080533394441997
38890536 -0.8227742939131598 0.3322714173243776
39088702 -0.8219673551254358 0.3328855049479158
39286868 -0.8211805705787962 0.33387070123472334
39485034 -0.8200573898364841 0.33511542643005054
39683200 -0.8189866621255957 0.3357515021603277
39881366 -0.8182541092992759 0.33683639148964856
40079532 -0.817430554891509 0.33744125591379037
40277698 -0.8165702947551676 0.33828770687631293
40475864 -0.8155886948112112 0.33948529206784345
40674030 -0.8145273614218946 0.33999059082953836
40872196 -0.8135816663416201 0.3408307416015232
41070362 -0.8128276351709028 0.3420128529352481
41268528 -0.8119968006060437 0.34300530100711635
41466694 -0.8113449705660916 0.343736848019489
41664860 -0.8100915085783266 0.34433033607569297
41863026 -0.8094167651754376 0.34530749032817604
42061192 -0.8085466976584907 0.3462602225863128
42259358 -0.8076736055750685 0.3471584064137924
42457524 -0.8065856563027525 0.34759393474464395
42655690 -0.8057384806813437 0.34869018318538825
42853856 -0.8052396936565194 0.3495183070884364
43052022 -0.8044276424563785 0.3505451370871938
43250188 -0.8032230759483038 0.3515508482612722
43448354 -0.8026919693962659 0.3520621778475138
43646520 -0.801904169056342 0.35244596904631775
43844686 -0.8007482337077697 0.3533512577118196
44042852 -0.7999237315013898 0.35461674576093244
44241018 -0.7991370254538763 0.3551138305167819
44439184 -0.7984136099053074 0.35580870829310224
44637350 -0.7974390146414406 0.35700416584175326
44835516 -0.7969868972713983 0.35783781644094076
45033682 -0.7956216545086933 0.35843180884298637
45231848 -0.7951907288434826 0.35914782503588333
45430014 -0.7940815261765292 0.3599197721316027
45628180 -0.7934814023180559 0.3610826285391673
45826346 -0.7924431090683105 0.361916701792193
46024512 -0.7910982146293022 0.3624931348310251
46222678 -0.7907214350331777 0.3636195389239837
46420844 -0.7899408712783115 0.36394880072654323
46619010 -0.7891129510896255 0.3645639533025291
46817176 -0.7883203634687393 0.36562997562280436
47015342 -0.7873194306746885 0.36610733641487736
47213508 -0.7864728972838668 0.36709624807598096
47411674 -0.7855792423044223 0.36795442060241534
47609840 -0.7853357874625253 0.3685689613029082
47808006 -0.7843678546397739 0.36933277199963516
48006172 -0.7832228583515005 0.37009000026442607
48204338 -0.7825809548838522 0.3707621913002217
48402504 -0.7818591107688656 0.3715264178439368
48600670 -0.7811741590104013 0.37180826950726553
48798836 -0.780080793409311 0.372755030461636
48997002 -0.7795267431491626 0.37359722414215507
49195168 -0.7785665575444365 0.374297125901011
49393334 -0.7773246870306969 0.3752110123634278
49591500 -0.7768484075641537 0.3756650028570994
49789666 -0.7764139535258106 0.3764273792458343
49987832 -0.7744502118795498 0.3764104305011052
50185998 -0.7707908982264537 0.37429529247881604
50384164 -0.7730922936078594 0.37724586154133305
50582330 -0.7707562469183715 0.3767318220433405
50780496 -0.7708885659654905 0.3778926574072053
50978662 -0.7714891571044346 0.3797933999818348
51176828 -0.770520290546701 0.38022780511637433
51374994 -0.7691483836190265 0.38070266560258004
51573160 -0.7683572152570004 0.38145165351584476
51771326 -0.7672125937029892 0.38147498963288523
51969492 -0.7656367964023196 0.3817477093903656
52167658 -0.7658426535279186 0.38337584204722164
52365824 -0.7640651713231891 0.38267619169559863
52563990 -0.7637114912509817 0.3841071762932735
52762156 -0.7640153068348827 0.38607231785177826
52960322 -0.7596650927326614 0.38360297803619325
53158488 -0.7595276303930529 0.3835399519327589
53356654 -0.7574605184326988 0.3845386557524129
53554820 -0.7592049332239773 0.38646964571582254
53752986 -0.758438985410661 0.3874349156058
53951152 -0.7579882408607237 0.38861137132820445
54149318 -0.7589263820988276 0.3905335069914232
54347484 -0.7572892407892087 0.3903992946551311
54545650 -0.7549458747329352 0.38865520230041734
54743816 -0.7545389348305513 0.38965421335395317
54941982 -0.754169228669463 0.39057053521022145
55140148 -0.7529738544068736 0.3906828450146439
55338314 -0.7525216741156927 0.39127664000960544
55536480 -0.7515347507778944 0.39235966004305156
55734646 -0.7511687415901723 0.3931101629887206
55932812 -0.7502018155438528 0.39374830323862536
56130978 -0.749383233738564 0.3938909292986401
56329144 -0.7485467564545134 0.3948984263574892
56527310 -0.7474074772469045 0.3947119283917348
56725476 -0.7470598086201965 0.3954204715163911
56923642 -0.7463831764701275 0.39588176346405074
57121808 -0.7459145821153726 0.39662612494644417
57319974 -0.7447036853422573 0.3971686990945173
57518140 -0.7439176401288284 0.3977886308440768
57716306 -0.7434430807742319 0.3985275655121905
57914472 -0.742645887024075 0.3990257718380538
58112638 -0.7417306514193842 0.3991174825970683
58310804 -0.7408410711945405 0.39999905062576147
58508970 -0.7399470588290185 0.4003516895469387
58707136 -0.7396767549317234 0.4009286050028892
58905302 -0.7387382834672998 0.4018618771364599
59103468 -0.7382613654956163 0.4021579486179507
59301634 -0.7375654413865972 0.4032163873380167
59499800 -0.7369259314748674 0.4034201684394169
59697966 -0.7359763767481418 0.4039953630625601
59896132 -0.7353274947971663 0.4042451032881088
60094298 -0.7313435546576718 0.4046425556593557
60292464 -0.7309682744445333 0.40498260397984664
60490630 -0.7300154297892028 0.4056723060736549
60688796 -0.7293376250857881 0.40611113801676063
60886962 -0.728725849199044 0.4070440472749164
61085128 -0.727920492865363 0.4076082042669511
61283294 -0.7273397724027149 0.4082626995937004
61481460 -0.7267025271346965 0.4087684484839439
61679626 -0.7258277735386227 0.40909913862939185
61877792 -0.7249186784676336 0.4097011072286138
62075958 -0.724412281312979 0.41030959375505605
62274124 -0.7236281870072936 0.41045358895310263
62472290 -0.7228081666853691 0.41124965711527595
62670456 -0.7224489127118217 0.41125086333711186
62868622 -0.7213434806288317 0.4123224094695672
63066788 -0.7207886071207602 0.4128992906814895
63264954 -0.7200010769991486 0.4130437729697932
63463120 -0.7194829935681456 0.4137474303208616
63661286 -0.7186217605065742 0.4142297769264026
63859452 -0.7181332164040228 0.41467483777981407
64057618 -0.7174813364050859 0.41498123088142513
64255784 -0.7165732925018745 0.41531160908540893
64453950 -0.7161586074104362 0.4163020026691458
64652116 -0.7152744900768129 0.4165678134912524
64850282 -0.7146815158494956 0.4169558961499926
65048448 -0.7138660472983613 0.41737371527394646
65246614 -0.7133399810831555 0.4181500539038303
65444780 -0.712621144210001 0.41841133790861307
65642946 -0.7121258910532637 0.41893550746016966
65841112 -0.7113638380343305 0.41958934610431975
66039278 -0.7103092780767438 0.4198646959260608
66237444 -0.7098983683219684 0.4202096812582987
66435610 -0.7091650481142554 0.4206842809071137
66633776 -0.7087774090113091 0.42151269584570344
66831942 -0.708056544925192 0.42176819318712927
67030108 -0.7075583848839757 0.4218376825656261
67228274 -0.7068170569880725 0.42234288015956417
67426440 -0.7062938597869833 0.4230236093751219
67624606 -0.705565508209929 0.42338196468664774
67822772 -0.7051313402485792 0.4240068828445301
68020938 -0.7042383319316167 0.4243614566105464
68219104 -0.7035058071614918 0.42469290685386857
68417270 -0.702924728588514 0.42545544079499975
68615436 -0.7023291486137295 0.42579892477386627
68813602 -0.7014804926167261 0.4259489704918657
69011768 -0.7009170178054169 0.42663056317811043
69209934 -0.7003827183779021 0.42727077507770045
69408100 -0.6995511791609504 0.427484470317891
69606266 -0.6989060669176294 0.42822116142772076
69804432 -0.6984884630843597 0.4285104010430358
70002598 -0.6975406933313404 0.4290286977004459
70200764 -0.6971239422256154 0.42972404636322137
70398930 -0.6964254960634217 0.429925627746694
70597096 -0.6960604463573461 0.43045669229394284
70795262 -0.6955629467555031 0.43039266915017405
70993428 -0.694485076988798 0.4311111579699656
71191594 -0.6940804645072466 0.4318256031277793
71389760 -0.6932089452286561 0.4320264605417869
71587926 -0.6924652582053614 0.4323437982337504
71786092 -0.6921905523269134 0.4325754592736454
71984258 -0.6912170515356005 0.43331208298773793
72182424 -0.6907158302865427 0.43371755681343743
72380590 -0.6902478074038026 0.43387940844424105
72578756 -0.6889167677763421 0.43462184959368055
72776922 -0.6887004302819859 0.4349081332661876
72975088 -0.6879842398113776 0.4356741501388379
73173254 -0.6873629858231866 0.4356798225191158
73371420 -0.6872001429733703 0.4363699870324563
73569586 -0.6863208947010055 0.43664546789275066
73767752 -0.6856416067451563 0.4369298758397648
73965918 -0.6850133463297691 0.43748362604759966
74164084 -0.684464311531097 0.4379881851740689
74362250 -0.6839055729789474 0.4382852865769898
74560416 -0.6831770657666768 0.43846150968387576
74758582 -0.6824597662663247 0.43922400018089874
74956748 -0.6818534266691687 0.43958053941373015
75154914 -0.6811616277496443 0.4399769266885436
75353080 -0.6805651982640576 0.44021655524511016
75551246 -0.6800322879054607 0.44058690854094235
75749412 -0.679325319952532 0.4412190050319499
75947578 -0.678901051913593 0.4415273775260319
76145744 -0.6779117992106786 0.4417858491171413
76343910 -0.6774210158385806 0.44210619751273067
76542076 -0.6768796387835402 0.4426459091092083
76740242 -0.6764617414525529 0.4433152571145129
76938408 -0.675857656133877 0.4436593843327578
77136574 -0.6748409799241236 0.4437312289276521
77334740 -0.6741721443472006 0.44442787228279035
77532906 -0.6734840817996968 0.4446054667031962
77731072 -0.673028097260254 0.44468768013051785
77929238 -0.6722972806542328 0.4456433885646921
78127404 -0.672044162748587 0.44560969275508555
78325570 -0.6713710746623028 0.4458990149116179
78523736 -0.6706251604364583 0.4458987252470313
78721902 -0.6699539315767794 0.44636842880174976
78920068 -0.6694284039472631 0.4466700159050375
79118234 -0.6691715701125515 0.44679814950548796
79316400 -0.6685228410964374 0.4470646722357106
79514566 -0.6684890183220961 0.4474087062102144
79712732 -0.6680761906949918 0.44777358104678705
79910898 -0.6677935452267622 0.4476727106185119
80109064 -0.6670841586233227 0.44817206893514067
80307230 -0.6666283954941178 0.44874047972534026
80505396 -0.6666700339090063 0.4490686018853184
80703562 -0.6660568598451043 0.4494778700259624
80901728 -0.6653933578931477 0.450290497156489
81099894 -0.6652709839770297 0.4504864952328522
81298060 -0.6649118735438916 0.45090649151775836
81496226 -0.6639197809821653 0.4515852751233085
81694392 -0.6634440292684904 0.4522257817006163
