# HZ S RI R 50
50000 -1.0000440487183417 0.012375249401504244
149034 -1.000845604793446 0.036969764558453924
248068 -0.999385670187039 0.06120170868073284
347102 -0.9971259625471285 0.08590838524761664
446136 -0.9941113428925963 0.11065054836715914
545170 -0.9904250117957555 0.13532448432970737
644204 -0.9860766628637774 0.16006690289910866
743238 -0.9806069756692106 0.18545453574154472
842272 -0.9745758215282093 0.21077748742362518
941306 -0.9670342021673918 0.2365640974132041
1040340 -0.958499622605099 0.26287813334766247
1139374 -0.9481492795103106 0.28928249776854287
1238408 -0.9359632351682226 0.3161466379842837
1337442 -0.9211685385206595 0.3432669620722579
1436476 -0.903741807707711 0.36938661710269793
1535510 -0.8832464369249795 0.3941001666862777
1634544 -0.8604130522488269 0.41684863157372776
1733578 -0.8353666064520224 0.4365539062204734
1832612 -0.809135858914292 0.4528870835910578
1931646 -0.7828340999660549 0.46630575585700085
2030680 -0.7566551003757538 0.4767175886896673
2129714 -0.731279080159068 0.48464808810858345
2228748 -0.7067325630866533 0.49030239489947286
2327782 -0.6832641183744138 0.4941160579564003
2426816 -0.6610739142724612 0.4964660210143591
2525850 -0.6401829817390025 0.4975069990018587
2624884 -0.6201531993288562 0.4971881817565435
2723918 -0.6016373981054663 0.4963107254655197
2822952 -0.5842597580340673 0.49469332024020857
2921986 -0.5681708268078586 0.49263039296023947
3021020 -0.5530382536567087 0.48984385652862666
3120054 -0.5391376787326128 0.487017835311737
3219088 -0.5260640358797839 0.4837646372090238
3318122 -0.5138190876684805 0.48069975179013985
3417156 -0.5023978873995086 0.477784108899533
3516190 -0.49193345355010076 0.47470861249719315
3615224 -0.48169150476612477 0.4716602815889278
3714258 -0.47227770486328996 0.46884177410579936
3813292 -0.4635254713503258 0.4658812597652106
3912326 -0.45509893616151986 0.4632979857490776
4011360 -0.44727608022726373 0.46083503292673916
4110394 -0.4397019950263948 0.45864936637224785
4209428 -0.43238410544509237 0.4562029385135756
4308462 -0.4253547496677488 0.45403512376651206
4407496 -0.4186061479715913 0.4521092057836463
4506530 -0.4123056340946823 0.45025500327116985
4605564 -0.40601603027830613 0.44852840416378675
4704598 -0.4000789350656528 0.4471115201833866
4803632 -0.39429911268711704 0.44557739857212886
4902666 -0.38867176852870217 0.4440684385001954
5001700 -0.38314418096154795 0.4428024363369352
5100734 -0.37780568071454973 0.44158933845125115
5199768 -0.3726814509751363 0.44046818951248734
5298802 -0.3673887815751556 0.4392824024664967
5397836 -0.36232392401296154 0.43836137324214086
5496870 -0.35732023623857295 0.4376147508311724
5595904 -0.3527170625956517 0.43655369830355983
5694938 -0.347843832753303 0.43575220596078845
5793972 -0.34325825170611673 0.43486777923773756
5893006 -0.3385638799535938 0.434262903936108
5992040 -0.33425674234688174 0.4334917658757122
6091074 -0.3300186811627066 0.4329389791153027
6190108 -0.3255759514883911 0.4321937924748982
6289142 -0.32128002613024825 0.4314606989332759
6388176 -0.3169374497966562 0.43117794039737256
6487210 -0.3127747811517873 0.430540667549533
6586244 -0.30873422412518947 0.429980986331365
6685278 -0.30462680581833307 0.42931601366041916
6784312 -0.3005663035754725 0.42873405564248485
6883346 -0.29685056049604275 0.4282001731804133
6982380 -0.2930879082492459 0.42785911868244536
7081414 -0.2891859831204065 0.42741305896217974
7180448 -0.28530606196504593 0.4269665110880303
7279482 -0.2815236502029458 0.42652448337686927
7378516 -0.2778448618419597 0.4262079894986772
7477550 -0.2741075761634614 0.42578472968056885
7576584 -0.27046535186173265 0.42540023342921857
7675618 -0.2666797169742983 0.4249054949107095
7774652 -0.2632343723832282 0.4246850349960751
7873686 -0.25971710667262426 0.4239154032001261
7972720 -0.2561367251187341 0.4237161586430076
8071754 -0.2529978028472672 0.42322954209852565
8170788 -0.24927111446785333 0.42279594651417984
8269822 -0.24608535284345215 0.42254452660519326
8368856 -0.2427692397461813 0.42189342161148735
8467890 -0.23945617596531213 0.4216635109209783
8566924 -0.23618485016284105 0.42115216922625476
8665958 -0.23301832304888423 0.42069628088258154
8764992 -0.22974367096594783 0.42031835909305076
8864026 -0.2265229534424358 0.42010307750550135
8963060 -0.2235983447986011 0.41953127432250936
9062094 -0.2204558311381231 0.4193408187145298
9161128 -0.21727271043491775 0.41881754588996534
9260162 -0.21413910125442048 0.41843084776558664
9359196 -0.21125891246324593 0.41795105739113037
9458230 -0.20832694325946982 0.41761744032631826
9557264 -0.20534919948958444 0.4173340407759466
9656298 -0.20250904045626314 0.4166603238980209
9755332 -0.19967749408018381 0.41619305000537277
9854366 -0.19683578330703044 0.4159176418033673
9953400 -0.1941170935320531 0.41548488788260096
10052434 -0.19159661442522744 0.4152937413056145
10151468 -0.18859201368605333 0.41479197854949046
10250502 -0.1858462920745215 0.41429280960394105
10349536 -0.18305611315115736 0.4138457638770978
10448570 -0.18042132339027664 0.4133285036180959
10547604 -0.1776986321632301 0.4129709059797729
10646638 -0.17519333384574837 0.4126350590033875
10745672 -0.17258119750592554 0.41221259138078153
10844706 -0.1698629321726618 0.4116139718182843
10943740 -0.1673773369799853 0.41122736860543346
11042774 -0.1650183304425727 0.41072576166585634
11141808 -0.16258654586377594 0.41038978827162764
11240842 -0.1599758428784368 0.4098137052371423
11339876 -0.1576845666643375 0.40965609343335807
11438910 -0.15530762829026643 0.40892181031872266
11537944 -0.1528254559700538 0.4085729683465986
11636978 -0.15037966990738685 0.40808362212509036
11736012 -0.14799505499103616 0.4077854711344866
11835046 -0.1456974495771637 0.4073633850835315
11934080 -0.14342915717325233 0.40681434372188247
12033114 -0.14104360906930022 0.4064177603478956
12132148 -0.1387266477065702 0.4058851758122036
12231182 -0.13658580665121067 0.40541331009111875
12330216 -0.13443803508675162 0.40486260897578696
12429250 -0.13230157205748272 0.4045348907160653
12528284 -0.1299537254930951 0.40416266727534705
12627318 -0.12764764259023353 0.4035622568230409
12726352 -0.12560170149383976 0.40335976520113775
12825386 -0.1236207981683455 0.4028218414075756
12924420 -0.1213970147295524 0.40233240647274215
13023454 -0.11935159011977262 0.4018016908581305
13122488 -0.1172342328612645 0.40131601799246946
13221522 -0.11529501836232929 0.4008259209438857
13320556 -0.11331923757767337 0.40033430287710897
13419590 -0.11131328132162567 0.4000653768403586
13518624 -0.10933137345255511 0.39952303393481853
13617658 -0.10751319157107553 0.399124339466342
13716692 -0.10527733525564519 0.3986889490816505
13815726 -0.10351815814239211 0.39810739854335525
13914760 -0.1014683219170833 0.3977315297475265
14013794 -0.09967483270474763 0.3971867101260624
14112828 -0.09781950608331745 0.39679915388647924
14211862 -0.0958351604328481 0.3962552704766071
14310896 -0.09389924127572022 0.3956870116840993
14409930 -0.09225852211569856 0.39546303936533883
14508964 -0.09047620296597696 0.3950899692537426
14607998 -0.08856090925864106 0.3944242652904879
14707032 -0.08673960188313122 0.3938915358008976
14806066 -0.08504799091454185 0.3936085357908679
14905100 -0.0832737259066695 0.39323909087236836
15004134 -0.08169630679772236 0.39250738245006933
15103168 -0.07988690321313502 0.3920963818634262
15202202 -0.07813805319457508 0.3916871267638855
15301236 -0.07637479145582703 0.39125828190601875
15400270 -0.07481871043508284 0.3907984468890462
15499304 -0.07304514383374992 0.3902411055817282
15598338 -0.07136540221813067 0.38991325105296315
15697372 -0.06982398135605054 0.3894226944764039
15796406 -0.06812626673591 0.38904699765987566
15895440 -0.06648990816446168 0.3885570404078556
15994474 -0.06480600269468485 0.3881198379424092
16093508 -0.06345473305294469 0.38757355875381355
16192542 -0.06166386714629848 0.3870500358548991
16291576 -0.060206180126728286 0.38693226078564574
16390610 -0.05864992701323261 0.386393542609634
16489644 -0.057030895784246735 0.38591543627569386
16588678 -0.05566130547760734 0.38540863763241784
16687712 -0.05410805684372143 0.38509494401182953
16786746 -0.05272179680658622 0.3845630845610212
16885780 -0.0512265414241611 0.384179764690434
16984814 -0.04979810823691765 0.3836869917528111
17083848 -0.04836914559444155 0.38326205283054243
17182882 -0.04680686709956434 0.3828348328856347
17281916 -0.045553062952683986 0.3825878174794791
17380950 -0.04409746283422333 0.38209526006993905
17479984 -0.04262405901186904 0.3813651853128447
17579018 -0.041239733100135616 0.38104865081294076
17678052 -0.03985545469349118 0.3807271024094046
17777086 -0.03841827712178281 0.38022209770187937
17876120 -0.037119993320735865 0.37997925668069227
17975154 -0.035771153321643136 0.37937741324946983
18074188 -0.03443696842927325 0.3790750665463068
18173222 -0.033189997962804876 0.3786557449930398
18272256 -0.031924157309091976 0.37818927859716067
18371290 -0.030499470537547355 0.37760891016723164
18470324 -0.029412211256504808 0.3772373795483398
18569358 -0.027952985971153397 0.3768579368527577
18668392 -0.026728608589207396 0.37643777004867246
18767426 -0.025455233954375645 0.37593654061570797
18866460 -0.024289385889030103 0.3757886964256715
18965494 -0.022900537111343697 0.3750842726633074
19064528 -0.021711216624276546 0.37474107535933593
19163562 -0.02020478769978836 0.37446934620532896
19262596 -0.019390906835535484 0.37390246535416527
19361630 -0.01808031223364181 0.3735459454098052
19460664 -0.017021775011879507 0.3730515483469473
19559698 -0.015712120289242203 0.3726526815524478
19658732 -0.014396872056040176 0.3725115361931483
19757766 -0.013295469848449254 0.37210556547788776
19856800 -0.012098308624520273 0.37145483107939514
19955834 -0.010969049025210082 0.37130636694726654
20054868 -0.010227716372844807 0.3708010231269848
20153902 -0.008926418981638179 0.37051486627667835
20252936 -0.0077666352181749105 0.3698855207237489
20351970 -0.006816470916217028 0.36960225464473706
20451004 -0.005741435969004015 0.3692498661072366
20550038 -0.004390321806867153 0.3688474753197675
20649072 -0.0034102133121003755 0.3685735046696806
20748106 -0.0023691569694813154 0.3681321582664397
20847140 -0.001257262193887764 0.36769529656597016
20946174 4.051984693108225e-06 0.36738399520685894
21045208 0.0007890653912741388 0.3671613602217866
21144242 0.0019374797272924298 0.3666932283153979
21243276 0.002819204607536686 0.3662518858038456
21342310 0.003943167069343064 0.36584862265754015
21441344 0.004918047255132635 0.3654330029913363
21540378 0.005943694916988668 0.36510359736017944
21639412 0.007078414613878926 0.36478129723469055
21738446 0.008003576211855488 0.3644924980561215
21837480 0.009114767881952385 0.36410830297047936
21936514 0.009763499851275906 0.36367340349494093
22035548 0.011101686392662987 0.3633571343368099
22134582 0.012212910463799883 0.3629897278539641
22233616 0.012990186417060866 0.36259136231437145
22332650 0.014011773436192504 0.362214754691525
22431684 0.014871161971244709 0.362013029496952
22530718 0.015774127950887628 0.3615295280393804
22629752 0.01685330376460739 0.36116792147962473
22728786 0.017537868276112454 0.3607997096221492
22827820 0.018692181563003594 0.36058987804238946
22926854 0.019471410573186812 0.3602350651387701
23025888 0.02044076063270116 0.3599429380710855
23124922 0.021415767389431732 0.3594109044808562
23223956 0.022306948218929416 0.3592975323831221
23322990 0.023215508373695872 0.3589234178290431
23422024 0.023979149611244876 0.3585442227922897
23521058 0.024928808392326435 0.35822032218678684
23620092 0.025926963998150827 0.35798523109468383
23719126 0.02683987125948925 0.3577499861424331
23818160 0.02759271161917185 0.35721540328781837
23917194 0.028558740483493533 0.3569214491225801
24016228 0.029287088647705864 0.35670281520726793
24115262 0.030160335207617378 0.3563732137046263
24214296 0.030935808461443018 0.3558956252434105
24313330 0.031859793225929495 0.3556232869040077
24412364 0.032683668175186996 0.35529263049629584
24511398 0.03341172208951101 0.35517984697564847
24610432 0.0343264064110862 0.35478666055812
24709466 0.035187541945549176 0.35448209254077195
24808500 0.03599508144275817 0.3540159546651729
24907534 0.036690029276037865 0.3538208223622494
25006568 0.03757585177902648 0.35331116892971454
25105602 0.03819557234833949 0.35296657688385913
25204636 0.03931450059406042 0.3528190718419485
25303670 0.04002858863502328 0.3524692042711345
25402704 0.040846307572763835 0.35236202627605784
25501738 0.041611994353083076 0.35208810083700265
25600772 0.04229634328477402 0.35178240862755766
25699806 0.04309592957894165 0.3513727570907405
25798840 0.04382706751232628 0.3512004916807285
25897874 0.04464258428625451 0.35078839076671886
25996908 0.04543355181542399 0.35050391276707615
26095942 0.04620163571745694 0.35034795307747285
26194976 0.04689126370002906 0.35008123392292795
26294010 0.04777016525215434 0.3497682438601624
26393044 0.048358704755932055 0.3495615419568055
26492078 0.04913357111942969 0.3492273219995802
26591112 0.05001149183712216 0.34902646513613955
26690146 0.05072854116741899 0.3488284777973466
26789180 0.051337389867188776 0.3484353141758505
26888214 0.052150351553278365 0.3482493041504283
26987248 0.052679048063130944 0.34779341357507026
27086282 0.0533878211053751 0.34765960102392574
27185316 0.054330258925734565 0.3471103894476515
27284350 0.05461712556546158 0.3472018366774453
27383384 0.05563653758219402 0.34678218250273773
27482418 0.056153539607493516 0.3465724059983476
27581452 0.05690081746070356 0.346226442147095
27680486 0.057731231383181224 0.34616820484774685
27779520 0.05835206614541294 0.34580796335161673
27878554 0.05894269678237472 0.34556015073132273
27977588 0.05974901878580039 0.3453671897231541
28076622 0.060244920843025324 0.34506754377977844
28175656 0.06101511703260513 0.34489591752344545
28274690 0.06156402565152142 0.3445249166362521
28373724 0.06228992924109188 0.34444572051093975
28472758 0.06295474941688269 0.34408367177936383
28571792 0.06370102566274524 0.3440198895246423
28670826 0.06417027739860687 0.34353886096171293
28769860 0.06482243834124306 0.3434580544613148
28868894 0.06560128767083748 0.34317033931648405
28967928 0.06615551745206272 0.34289811086581934
29066962 0.06661527368981543 0.34262175093198555
29165996 0.06732590392476417 0.34240726328596377
29265030 0.06796343079919567 0.34217682635524554
29364064 0.06867211492137291 0.3421010481438643
29463098 0.06930308114834417 0.3418287613169085
29562132 0.07003136274739698 0.34144807385964737
29661166 0.07062933913429047 0.34104659241001933
29760200 0.07092274088974887 0.3411885454472825
29859234 0.07180948475197894 0.34077004122981236
29958268 0.07240787056250363 0.34057512355251923
30057302 0.07303857787490758 0.3404884104514696
30156336 0.07352911151913351 0.34013676085370503
30255370 0.07405239555291715 0.3397684446351473
30354404 0.07464986622000332 0.3397298116066128
30453438 0.07520609525753522 0.33949568783726997
30552472 0.07575552414502419 0.33941197830264663
30651506 0.07633999041468506 0.33908540631342593
30750540 0.07711281759881351 0.33867783767920334
30849574 0.07763960067992716 0.3384437131849167
30948608 0.07822213715234534 0.3384183346474177
31047642 0.07883928774725255 0.33829452217765965
31146676 0.07929194687765137 0.3379904452417002
31245710 0.07987387217024577 0.33794479550438994
31344744 0.08042183555222915 0.33772933014782
31443778 0.08096625982006693 0.33723939792654395
31542812 0.08169455133435222 0.33717491301006314
31641846 0.0821467139653082 0.3371264015249831
31740880 0.08267482670046306 0.3367688206934853
31839914 0.08313554207586873 0.33652436765425403
31938948 0.08376474563847107 0.33633301158387846
32037982 0.08443016927101231 0.3364043867807788
32137016 0.08482138803270772 0.3360093973351501
32236050 0.08538318437638232 0.33569910068421643
32335084 0.08598793229403266 0.3356556886476026
32434118 0.08660512532374359 0.3353394588101973
32533152 0.08700387807369006 0.33532689398128157
32632186 0.08749662683107094 0.3348756433673957
32731220 0.08793981387502812 0.33486422640500374
32830254 0.08860945179762363 0.33469803786816205
32929288 0.08904032393157006 0.33446774122845
33028322 0.08961106030261809 0.33417281072229515
33127356 0.09010939185051416 0.33398069718326073
33226390 0.0905678401809131 0.3339562909430932
33325424 0.0910206193505532 0.33375321292530735
33424458 0.09170198094419182 0.33356108698574266
33523492 0.09212275052418196 0.3331704415423715
33622526 0.09271205252044395 0.33308903701429704
33721560 0.09312521916886898 0.3330384844362826
33820594 0.09360508721894983 0.3328420282300695
33919628 0.09414664951096524 0.33275728158773793
34018662 0.0946015405550094 0.33249457552041534
34117696 0.0950209526225676 0.3321806135465402
34216730 0.09571895957352616 0.33221709517518216
34315764 0.09618724088766464 0.3318744752216774
34414798 0.09662317963914868 0.33182174425525224
34513832 0.0970605318587363 0.3315220954522382
34612866 0.0976237817375476 0.33145613011042935
34711900 0.09808500008720196 0.3312424403007269
34810934 0.09858595119784132 0.33093701574986023
34909968 0.0989631639838757 0.3306996542776623
35009002 0.09956022886049358 0.3307664864268501
35108036 0.09990222427166726 0.3306184776490718
35207070 0.10029004665718094 0.3304728164246802
35306104 0.10068290888886226 0.3301874014247084
35405138 0.10139589347245778 0.3301126110314642
35504172 0.10185393678566207 0.32993264993095833
35603206 0.10241132922519973 0.32967234308566273
35702240 0.10274296391273467 0.3295321585706149
35801274 0.10332642435654803 0.3293102303421031
35900308 0.10346242772543994 0.32904301666381797
35999342 0.1041477651339104 0.32915237728320107
36098376 0.10433255870919637 0.32910214599225845
36197410 0.10493772964580905 0.3286462175771481
36296444 0.10535564173137275 0.32864362489292265
36395478 0.10584311453422297 0.32833752076801176
36494512 0.10639934223265478 0.3282083044863998
36593546 0.10665572139324744 0.32808308115599916
36692580 0.1070254190844114 0.3280035835881584
36791614 0.10774431710647114 0.32793376764751797
36890648 0.10817657853395007 0.3277087797593089
36989682 0.10829907235594328 0.32752329656802115
37088716 0.10875387008129112 0.3272612857474824
37187750 0.10925067955193137 0.32735819084121565
37286784 0.10968830481146981 0.3270996251221699
37385818 0.11008671013290158 0.3269034108039648
37484852 0.11066516689182894 0.326754357013417
37583886 0.11110111368516395 0.3267677013798443
37682920 0.11155348295089518 0.32642098891617666
37781954 0.11191310757212096 0.32643729508674785
37880988 0.11239862121537521 0.3261989538613668
37980022 0.11287316934618336 0.3259839008255713
38079056 0.11321222276456652 0.32598530833750533
38178090 0.11363019812624135 0.3257645629755001
38277124 0.1140239263376726 0.3256314683031785
38376158 0.11431565408567287 0.32561116246736593
38475192 0.11480721689844 0.32538234317700654
38574226 0.11508943839707668 0.3253046833195092
38673260 0.11548053951407554 0.32501469871175637
38772294 0.1159607172558532 0.32493849565269434
38871328 0.11631031918410936 0.3247562468573475
38970362 0.11666699831356586 0.3245422091725447
39069396 0.11700186605643365 0.3246085116094274
39168430 0.11746852172048868 0.32425840649231275
39267464 0.1178747548717266 0.3243276883706595
39366498 0.11822431831210418 0.32406696371219074
39465532 0.11875670091241873 0.3240212831420898
39564566 0.11900559369363817 0.3237990986050767
39663600 0.11943291459347748 0.32358095794633557
39762634 0.11986042200764292 0.32370002494773925
39861668 0.1202326487961674 0.3234672241826148
39960702 0.12069827615017412 0.3234675275737465
40059736 0.12134072488357137 0.3231756210212221
40158770 0.1213723765581436 0.32312109622982604
40257804 0.12203149704805753 0.32319925866874344
40356838 0.1223321874995849 0.3228444955287431
40455872 0.12239642319868076 0.3228639110703262
40554906 0.12303843584389208 0.3226944992892721
40653940 0.12336164345804143 0.322367553493246
