# HZ S RI R 50
100000000 -0.203553545589231 -0.9905821977678306
104000000 -0.2717059541683469 -0.9744353765066461
108000000 -0.3388946367072959 -0.9536149922371111
112000000 -0.4043763914577355 -0.9281063080012691
116000000 -0.4678239529108614 -0.8978752707830954
120000000 -0.5296973152104402 -0.8638758331736577
124000000 -0.587763581995243 -0.8251088237080448
128000000 -0.6438365255364493 -0.7834241618807138
132000000 -0.6965810198609643 -0.7376559026153373
136000000 -0.7457635692439283 -0.687332583920156
140000000 -0.7908545960083669 -0.6341939995852289
144000000 -0.8329242956794933 -0.5790044574282128
148000000 -0.870433382868268 -0.5204854959073524
152000000 -0.9045751792278613 -0.4591015023898933
156000000 -0.9339601495463747 -0.3958813834140444
160000000 -0.9586319323648096 -0.3310208358917349
164000000 -0.97945224476425 -0.264501389110996
168000000 -0.99500221651379 -0.1971318417186349
172000000 -1.0064509684754688 -0.12917009582019612
176000000 -1.0116645083777522 -0.059371795904469074
180000000 -1.0135999490491314 0.009179096530542035
184000000 -1.009949766284196 0.07868172561968236
188000000 -1.0020951796087583 0.14701744350865295
192000000 -0.9891090352239585 0.2147004150273318
196000000 -0.97187215026305 0.28111165930857307
200000000 -0.9503523881473559 0.3465977686247833
204000000 -0.9237847992273338 0.410413102204509
208000000 -0.8936176945654312 0.47188483481960036
212000000 -0.8589804520330315 0.5312245874882285
216000000 -0.821058088132745 0.588297077892868
220000000 -0.7782393111727544 0.6426829322999791
224000000 -0.7311336621816028 0.6933168881382967
228000000 -0.6816652360913829 0.7405359326652384
232000000 -0.6302320665548201 0.785255094375534
236000000 -0.5740676426965774 0.8262193136442245
240000000 -0.5161231977024705 0.8624851869445886
244000000 -0.4558459329277192 0.8952249716327576
248000000 -0.39204811544551343 0.9237948052448415
252000000 -0.32808542187129447 0.9480894784498068
256000000 -0.262330311251881 0.9665230401486952
260000000 -0.19459760929370715 0.9816504590978675
264000000 -0.12628282719061237 0.9915055389417565
268000000 -0.05902852123155399 0.9975952002408527
272000000 0.011112346947183462 0.9977226735103827
276000000 0.08063584894234299 0.9932198785813532
280000000 0.14787733317599544 0.9846033980644134
284000000 0.21698845044002116 0.9722862915037885
288000000 0.28471966616850103 0.9539886671880894
292000000 0.3486778540102095 0.928750572433583
296000000 0.41172645926263657 0.9018308400374967
300000000 0.4503742208963154 0.851605756312791
304000000 0.5271987168639316 0.8318441402359356
308000000 0.584508593160728 0.7971466767752176
312000000 0.6161271842971111 0.7309422544860014
316000000 0.6948955657788188 0.7053109521944659
320000000 0.7454981789297089 0.6542405593257057
324000000 0.7871243829364756 0.5969636781699471
328000000 0.8287274371569708 0.5396495001236281
332000000 0.8660100895778036 0.47977101291129437
336000000 0.8967328444074785 0.41906702422056785
340000000 0.9200578997473806 0.3499580525875957
344000000 0.9444181504220132 0.2871925075422931
348000000 0.9661623268197458 0.21451085198019124
352000000 0.9753802133600644 0.14821559229729048
356000000 0.985668981363057 0.07726024167266378
360000000 0.9843589426051884 0.010235812233188413
364000000 0.9891982511943689 -0.06222563877683009
368000000 0.9788552748252424 -0.13167617514342858
372000000 0.9643941490164568 -0.20388175617879992
376000000 0.9485559516646452 -0.27125588950204954
380000000 0.9309222330854883 -0.3349428151283524
384000000 0.902554284979469 -0.4008802388291857
388000000 0.8721691379847938 -0.46794396481236344
392000000 0.833244248800558 -0.5249409938168277
396000000 0.7958196059500006 -0.5842474061199199
400000000 0.7490230187485668 -0.6350307996339742
404000000 0.7056796157005633 -0.6906254499808816
408000000 0.6556076802704729 -0.7402332656203419
412000000 0.5948100921698567 -0.7860310425510745
416000000 0.5420453988067463 -0.8329840117061763
420000000 0.4881836557335402 -0.8721480890708708
424000000 0.41885927237294224 -0.8993703038521321
428000000 0.3638195881732611 -0.9203830502637921
432000000 0.28100762678517077 -0.9497810956362679
436000000 0.2323771632258249 -0.9721049243454272
440000000 0.1511389470043864 -0.979660026591658
444000000 0.076914490086818 -0.9969286858093963
448000000 0.015092869949025164 -1.0018608413970156
452000000 -0.07746969862411199 -0.9847942307113426
456000000 -0.1391581231430273 -0.9927152817024943
460000000 -0.20359955759135073 -0.9841659217904867
464000000 -0.27502488179459683 -0.9640979825506828
468000000 -0.33104654168783587 -0.9342755720140427
472000000 -0.4078841123000177 -0.921462485954671
476000000 -0.4716652738372424 -0.8896565905334805
480000000 -0.5338641675152375 -0.8559053025059187
484000000 -0.5936998632277735 -0.8168535752109698
488000000 -0.6486895696713055 -0.7729734646235547
492000000 -0.7013260583566655 -0.7274440344022253
496000000 -0.7502379367404813 -0.6794342850760059
500000000 -0.7968431319733664 -0.6259329501560085
