! Vector Network Analyzer VNA R2
! Tucson Amateur Packet Radio
! Saturday, 9 November, 2019   17:48:47
! Frequency              S11                           S21                            S12                            S22
! ListType=Lin
# HZ  S  RI R 50
000500000    -3.33238E-001  1.80018E-004    6.74780E-001  -8.19510E-007    6.75290E-001  -8.20129E-007    -3.33238E-001  3.08078E-004
001382728    -3.33017E-001  6.89580E-004    6.74251E-001  -3.70855E-004    6.74761E-001  -5.04361E-004    -3.33016E-001  9.45694E-004
002265456    -3.33136E-001  1.06095E-003    6.74766E-001  -1.00228E-003    6.75276E-001  -1.00304E-003    -3.33136E-001  1.06095E-003
003148184    -3.33120E-001  1.97467E-003    6.74773E-001  -1.65230E-003    6.74773E-001  -1.65230E-003    -3.33121E-001  1.91064E-003
004030912    -3.32847E-001  2.45743E-003    6.74777E-001  -2.28839E-003    6.75288E-001  -2.15679E-003    -3.33092E-001  2.45894E-003
004913640    -3.32746E-001  2.93382E-003    6.75260E-001  -2.94645E-003    6.75261E-001  -2.81312E-003    -3.32990E-001  3.06364E-003
005796368    -3.33479E-001  3.06528E-003    6.75798E-001  -2.32365E-003    6.76309E-001  -2.32540E-003    -3.33479E-001  3.06528E-003
006679097    -3.32609E-001  3.80377E-003    6.74764E-001  -4.08250E-003    6.74764E-001  -4.08250E-003    -3.32854E-001  3.80608E-003
007561825    -3.32448E-001  4.35906E-003    6.75247E-001  -4.96650E-003    6.75249E-001  -4.69986E-003    -3.32692E-001  4.36169E-003
008444553    -3.32510E-001  4.94361E-003    6.74737E-001  -5.33508E-003    6.75248E-001  -5.20579E-003    -3.32508E-001  5.13540E-003
009327281    -3.32540E-001  5.23454E-003    6.74245E-001  -5.84230E-003    6.74756E-001  -5.71349E-003    -3.32538E-001  5.36240E-003
010210009    -3.32439E-001  5.63223E-003    6.74238E-001  -6.34444E-003    6.74748E-001  -6.34923E-003    -3.32682E-001  5.82741E-003
011092737    -3.32540E-001  6.33491E-003    6.74725E-001  -6.98455E-003    6.75233E-001  -7.12315E-003    -3.32782E-001  6.46647E-003
011975466    -3.32520E-001  6.78266E-003    6.74742E-001  -7.74980E-003    6.74742E-001  -7.74980E-003    -3.32517E-001  6.97444E-003
012858194    -3.32251E-001  7.21687E-003    6.74709E-001  -8.25742E-003    6.75221E-001  -8.13034E-003    -3.32495E-001  7.28494E-003
013740922    -3.32283E-001  7.65529E-003    6.74224E-001  -8.75331E-003    6.74732E-001  -8.89315E-003    -3.32280E-001  7.78304E-003
014623650    -3.32136E-001  8.17053E-003    6.74712E-001  -9.26713E-003    6.75222E-001  -9.27414E-003    -3.32383E-001  8.04729E-003
015506378    -3.32205E-001  8.76676E-003    6.74685E-001  -9.90079E-003    6.75197E-001  -9.77496E-003    -3.32447E-001  8.89952E-003
016389106    -3.32080E-001  9.21012E-003    6.74662E-001  -1.04145E-002    6.75170E-001  -1.05557E-002    -3.32079E-001  9.27399E-003
017271835    -3.32154E-001  9.49379E-003    6.74193E-001  -1.11608E-002    6.74700E-001  -1.13025E-002    -3.32152E-001  9.62154E-003
018154563    -3.31998E-001  1.00992E-002    6.74662E-001  -1.15629E-002    6.75170E-001  -1.17050E-002    -3.31995E-001  1.02268E-002
019037291    -3.31940E-001  1.03930E-002    6.74689E-001  -1.23231E-002    6.74689E-001  -1.23231E-002    -3.31937E-001  1.05206E-002
019920019    -3.31798E-001  1.10248E-002    6.74629E-001  -1.29565E-002    6.75141E-001  -1.28330E-002    -3.31796E-001  1.10886E-002
020802747    -3.31929E-001  1.12927E-002    6.74623E-001  -1.34714E-002    6.75135E-001  -1.33483E-002    -3.31681E-001  1.14141E-002
021685475    -3.31956E-001  1.19022E-002    6.74129E-001  -1.40862E-002    6.74639E-001  -1.40969E-002    -3.31708E-001  1.20233E-002
022568204    -3.31942E-001  1.21935E-002    6.74592E-001  -1.46133E-002    6.75102E-001  -1.46243E-002    -3.31936E-001  1.23849E-002
023450932    -3.31821E-001  1.26789E-002    6.74632E-001  -1.53881E-002    6.74635E-001  -1.52549E-002    -3.31571E-001  1.28632E-002
024333660    -3.31622E-001  1.32997E-002    6.74572E-001  -1.58781E-002    6.75082E-001  -1.58901E-002    -3.31868E-001  1.32432E-002
025216388    -3.31641E-001  1.36906E-002    6.74565E-001  -1.62470E-002    6.75071E-001  -1.63926E-002    -3.31395E-001  1.37468E-002
026099116    -3.31683E-001  1.42242E-002    6.74097E-001  -1.68722E-002    6.74604E-001  -1.70181E-002    -3.31679E-001  1.43518E-002
026981844    -3.31563E-001  1.44243E-002    6.74518E-001  -1.75147E-002    6.75028E-001  -1.75279E-002    -3.31305E-001  1.48623E-002
027864573    -3.31389E-001  1.49567E-002    6.73999E-001  -1.80216E-002    6.74505E-001  -1.81684E-002    -3.31380E-001  1.52115E-002
028747301    -3.31391E-001  1.55249E-002    6.74047E-001  -1.86480E-002    6.74552E-001  -1.87952E-002    -3.31384E-001  1.57160E-002
029630029    -3.31274E-001  1.57520E-002    6.74477E-001  -1.90232E-002    6.74473E-001  -1.91564E-002    -3.31262E-001  1.60705E-002
030512757    -3.31105E-001  1.63176E-002    6.73953E-001  -1.96645E-002    6.74972E-001  -1.96943E-002    -3.31342E-001  1.65176E-002
031395485    -3.31155E-001  1.67731E-002    6.74001E-001  -2.04559E-002    6.74510E-001  -2.04714E-002    -3.31394E-001  1.69097E-002
032278213    -3.31325E-001  1.73646E-002    6.74426E-001  -2.09647E-002    6.74932E-001  -2.11138E-002    -3.31322E-001  1.74283E-002
033160942    -3.30956E-001  1.77978E-002    6.73911E-001  -2.15534E-002    6.74420E-001  -2.15696E-002    -3.31195E-001  1.79348E-002
034043670    -3.31049E-001  1.80684E-002    6.73961E-001  -2.18557E-002    6.74461E-001  -2.21386E-002    -3.31031E-001  1.85139E-002
034926398    -3.31017E-001  1.84219E-002    6.74366E-001  -2.27068E-002    6.74872E-001  -2.28572E-002    -3.31009E-001  1.86128E-002
035809126    -3.30806E-001  1.91017E-002    6.74350E-001  -2.32203E-002    6.74350E-001  -2.32203E-002    -3.30795E-001  1.93560E-002
036691854    -3.30747E-001  1.94894E-002    6.73901E-001  -2.37532E-002    6.74415E-001  -2.36380E-002    -3.30979E-001  1.97544E-002
037574582    -3.30842E-001  1.98303E-002    6.74319E-001  -2.42221E-002    6.74824E-001  -2.43736E-002    -3.30831E-001  2.00846E-002
038457311    -3.30823E-001  2.03842E-002    6.73787E-001  -2.48629E-002    6.74296E-001  -2.48817E-002    -3.30563E-001  2.07543E-002
039340039    -3.30693E-001  2.08593E-002    6.73870E-001  -2.53306E-002    6.74374E-001  -2.54829E-002    -3.30679E-001  2.11770E-002
040222767    -3.30797E-001  2.11834E-002    6.74253E-001  -2.59793E-002    6.74768E-001  -2.58657E-002    -3.30788E-001  2.13741E-002
041105495    -3.30415E-001  2.17180E-002    6.74224E-001  -2.65341E-002    6.74734E-001  -2.65541E-002    -3.30402E-001  2.19722E-002
041988223    -3.30429E-001  2.21901E-002    6.73797E-001  -2.68669E-002    6.74295E-001  -2.71535E-002    -3.30407E-001  2.26347E-002
042870951    -3.30209E-001  2.24610E-002    6.74182E-001  -2.76700E-002    6.74692E-001  -2.76909E-002    -3.30439E-001  2.27271E-002
043753680    -3.30461E-001  2.29905E-002    6.74164E-001  -2.81678E-002    6.74673E-001  -2.81891E-002    -3.30457E-001  2.30540E-002
044636408    -3.30348E-001  2.32602E-002    6.74149E-001  -2.85650E-002    6.74647E-001  -2.88530E-002    -3.30338E-001  2.34506E-002
045519136    -3.30232E-001  2.37382E-002    6.74110E-001  -2.91788E-002    6.74099E-001  -2.94450E-002    -3.30451E-001  2.41954E-002
046401864    -3.30193E-001  2.42220E-002    6.73671E-001  -2.99264E-002    6.74180E-001  -2.99490E-002    -3.30176E-001  2.45392E-002
047284592    -3.29919E-001  2.46057E-002    6.74047E-001  -3.06120E-002    6.74550E-001  -3.07683E-002    -3.30374E-001  2.52035E-002
048167320    -3.30232E-001  2.49503E-002    6.74033E-001  -3.12221E-002    6.74542E-001  -3.12457E-002    -3.30214E-001  2.52676E-002
049050049    -3.29961E-001  2.53895E-002    6.74009E-001  -3.17233E-002    6.73996E-001  -3.19895E-002    -3.30175E-001  2.59107E-002
049932777    -3.29937E-001  2.56649E-002    6.73586E-001  -3.22137E-002    6.74089E-001  -3.23711E-002    -3.29904E-001  2.62355E-002
050815505    -3.29904E-001  2.63352E-002    6.73959E-001  -3.27384E-002    6.74461E-001  -3.28963E-002    -3.29632E-001  2.68279E-002
051698233    -3.29902E-001  2.65745E-002    6.73927E-001  -3.33988E-002    6.74423E-001  -3.36904E-002    -3.29634E-001  2.70037E-002
052580961    -3.29685E-001  2.72513E-002    6.73900E-001  -3.38732E-002    6.74383E-001  -3.44314E-002    -3.29677E-001  2.73780E-002
053463689    -3.29587E-001  2.76318E-002    6.73974E-001  -3.46484E-002    6.74476E-001  -3.48078E-002    -3.29810E-001  2.79634E-002
054346418    -3.29385E-001  2.80148E-002    6.73835E-001  -3.51768E-002    6.74337E-001  -3.53366E-002    -3.29846E-001  2.84249E-002
055229146    -3.29826E-001  2.84231E-002    6.73804E-001  -3.56165E-002    6.74802E-001  -3.60701E-002    -3.29551E-001  2.89145E-002
056111874    -3.29374E-001  2.88509E-002    6.73806E-001  -3.57883E-002    6.74287E-001  -3.63478E-002    -3.29346E-001  2.92938E-002
056994602    -3.29340E-001  2.92064E-002    6.73754E-001  -3.67240E-002    6.74256E-001  -3.68848E-002    -3.29315E-001  2.95861E-002
057877330    -3.29083E-001  2.97708E-002    6.73852E-001  -3.73385E-002    6.74346E-001  -3.76330E-002    -3.29296E-001  3.02295E-002
058760058    -3.29126E-001  3.00328E-002    6.73686E-001  -3.79264E-002    6.74690E-001  -3.82501E-002    -3.29339E-001  3.04917E-002
059642787    -3.29470E-001  3.05761E-002    6.73647E-001  -3.83997E-002    6.74133E-001  -3.88281E-002    -3.29206E-001  3.08761E-002
060525515    -3.29230E-001  3.10854E-002    6.73602E-001  -3.92040E-002    6.74095E-001  -3.94998E-002    -3.29209E-001  3.14017E-002
061408243    -3.28934E-001  3.13888E-002    6.73703E-001  -3.98118E-002    6.74196E-001  -4.01081E-002    -3.29145E-001  3.18482E-002
062290971    -3.29007E-001  3.18608E-002    6.73552E-001  -4.00784E-002    6.74038E-001  -4.05079E-002    -3.28971E-001  3.23664E-002
063173699    -3.28928E-001  3.23916E-002    6.73510E-001  -4.07465E-002    6.74003E-001  -4.10435E-002    -3.28896E-001  3.28339E-002
064056427    -3.28657E-001  3.25978E-002    6.73470E-001  -4.13831E-002    6.73963E-001  -4.16806E-002    -3.28858E-001  3.31838E-002
064939156    -3.28741E-001  3.30104E-002    6.73452E-001  -4.16954E-002    6.73436E-001  -4.19613E-002    -3.28709E-001  3.34524E-002
065821884    -3.28672E-001  3.35412E-002    6.73558E-001  -4.23998E-002    6.74034E-001  -4.29642E-002    -3.28881E-001  3.40012E-002
066704612    -3.28685E-001  3.39145E-002    6.73362E-001  -4.31657E-002    6.74380E-001  -4.32310E-002    -3.28652E-001  3.43564E-002
067587340    -3.28727E-001  3.44237E-002    6.73319E-001  -4.38757E-002    6.73811E-001  -4.41749E-002    -3.28703E-001  3.47393E-002
068470068    -3.28457E-001  3.48298E-002    6.73442E-001  -4.43672E-002    6.73933E-001  -4.46669E-002    -3.28418E-001  3.53344E-002
069352796    -3.28463E-001  3.50287E-002    6.72782E-001  -4.42837E-002    6.73791E-001  -4.44837E-002    -3.28419E-001  3.55964E-002
070235525    -3.28066E-001  3.56237E-002    6.73380E-001  -4.52778E-002    6.73853E-001  -4.58443E-002    -3.28046E-001  3.58758E-002
071118253    -3.28182E-001  3.59179E-002    6.73546E-001  -4.56474E-002    6.74028E-001  -4.60812E-002    -3.28383E-001  3.64415E-002
072000981    -3.28320E-001  3.61305E-002    6.73095E-001  -4.70120E-002    6.73632E-001  -4.66485E-002    -3.28270E-001  3.67610E-002
072883709    -3.28074E-001  3.68275E-002    6.72880E-001  -4.76601E-002    6.73388E-001  -4.76961E-002    -3.28274E-001  3.73514E-002
073766437    -3.28124E-001  3.72758E-002    6.73721E-001  -4.79507E-002    6.73731E-001  -4.78177E-002    -3.28103E-001  3.75278E-002
074649165    -3.27911E-001  3.75450E-002    6.73563E-001  -4.78605E-002    6.74553E-001  -4.83325E-002    -3.28110E-001  3.80687E-002
075531894    -3.27895E-001  3.81299E-002    6.73159E-001  -4.86500E-002    6.73648E-001  -4.89527E-002    -3.27863E-001  3.85076E-002
076414622    -3.27763E-001  3.85933E-002    6.72383E-001  -4.98106E-002    6.72911E-001  -4.95825E-002    -3.27758E-001  3.86562E-002
077297350    -3.27786E-001  3.86343E-002    6.72953E-001  -4.91056E-002    6.73423E-001  -4.96745E-002    -3.27727E-001  3.93265E-002
078180078    -3.27778E-001  3.92203E-002    6.72915E-001  -4.97056E-002    6.72855E-001  -5.05028E-002    -3.27740E-001  3.96608E-002
079062806    -3.27551E-001  3.98247E-002    6.72477E-001  -5.10612E-002    6.73453E-001  -5.16703E-002    -3.27271E-001  4.02437E-002
079945534    -3.27363E-001  4.02130E-002    6.72920E-001  -5.18203E-002    6.73418E-001  -5.19924E-002    -3.27318E-001  4.07159E-002
080828263    -3.27157E-001  4.05666E-002    6.72996E-001  -5.27771E-002    6.73556E-001  -5.21521E-002    -3.27347E-001  4.11537E-002
081710991    -3.27255E-001  4.07847E-002    6.72572E-001  -5.22782E-002    6.73558E-001  -5.27562E-002    -3.27187E-001  4.15384E-002
082593719    -3.27269E-001  4.14646E-002    6.73478E-001  -5.32207E-002    6.74443E-001  -5.39670E-002    -3.27211E-001  4.20928E-002
083476447    -3.27078E-001  4.17507E-002    6.72171E-001  -5.42646E-002    6.72658E-001  -5.45712E-002    -3.26792E-001  4.22307E-002
084359175    -3.27133E-001  4.22195E-002    6.72378E-001  -5.46778E-002    6.72843E-001  -5.52506E-002    -3.26829E-001  4.28877E-002
085241903    -3.27021E-001  4.27576E-002    6.72232E-001  -5.57017E-002    6.73292E-001  -5.52542E-002    -3.26973E-001  4.32599E-002
086124631    -3.27061E-001  4.32178E-002    6.72511E-001  -5.47591E-002    6.73462E-001  -5.56398E-002    -3.26773E-001  4.36970E-002
087007360    -3.26826E-001  4.35176E-002    6.72530E-001  -5.68958E-002    6.73569E-001  -5.67159E-002    -3.26765E-001  4.41449E-002
087890088    -3.26596E-001  4.38587E-002    6.72830E-001  -5.71160E-002    6.73304E-001  -5.75580E-002    -3.26541E-001  4.44228E-002
088772816    -3.26526E-001  4.43908E-002    6.72614E-001  -5.72785E-002    6.73100E-001  -5.75876E-002    -3.26465E-001  4.50175E-002
089655544    -3.26600E-001  4.49511E-002    6.72474E-001  -5.76679E-002    6.72890E-001  -5.87744E-002    -3.26531E-001  4.56404E-002
090538272    -3.26631E-001  4.54994E-002    6.73503E-001  -5.87715E-002    6.73386E-001  -6.01011E-002    -3.26328E-001  4.61018E-002
091421000    -3.26536E-001  4.57718E-002    6.72370E-001  -5.88357E-002    6.72843E-001  -5.92787E-002    -3.26492E-001  4.62103E-002
092303729    -3.26346E-001  4.60928E-002    6.72393E-001  -5.97932E-002    6.72842E-001  -6.05026E-002    -3.26036E-001  4.67567E-002
093186457    -3.26362E-001  4.68231E-002    6.72047E-001  -6.01921E-002    6.73039E-001  -6.05489E-002    -3.26317E-001  4.72613E-002
094069185    -3.26275E-001  4.70625E-002    6.72695E-001  -6.09588E-002    6.72683E-001  -6.10917E-002    -3.26449E-001  4.77133E-002
094951913    -3.26052E-001  4.71870E-002    6.72395E-001  -6.19507E-002    6.73388E-001  -6.23103E-002    -3.26200E-001  4.80876E-002
095834641    -3.25952E-001  4.77116E-002    6.72465E-001  -6.11352E-002    6.72802E-001  -6.30414E-002    -3.25873E-001  4.84618E-002
096717369    -3.26032E-001  4.82203E-002    6.72345E-001  -6.25666E-002    6.72828E-001  -6.28796E-002    -3.25726E-001  4.88198E-002
097600098    -3.25840E-001  4.85197E-002    6.72319E-001  -6.29417E-002    6.72752E-001  -6.37863E-002    -3.25774E-001  4.91444E-002
098482826    -3.25880E-001  4.90403E-002    6.72257E-001  -6.35235E-002    6.72702E-001  -6.42356E-002    -3.25573E-001  4.96391E-002
099365554    -3.25964E-001  4.95814E-002    6.72179E-001  -6.42571E-002    6.72623E-001  -6.49697E-002    -3.25650E-001  5.02424E-002
100248282    -3.25713E-001  4.96256E-002    6.71603E-001  -6.49295E-002    6.72097E-001  -6.51113E-002    -3.25638E-001  5.03125E-002
101131010    -3.25686E-001  5.00183E-002    6.71793E-001  -6.53358E-002    6.72275E-001  -6.56506E-002    -3.25351E-001  5.08658E-002
102013738    -3.25246E-001  5.06076E-002    6.71820E-001  -6.56199E-002    6.72237E-001  -6.65987E-002    -3.25176E-001  5.12310E-002
102896467    -3.25392E-001  5.09116E-002    6.71481E-001  -6.62420E-002    6.71910E-001  -6.70881E-002    -3.25294E-001  5.17845E-002
103779195    -3.25145E-001  5.12740E-002    6.71112E-001  -6.71043E-002    6.72074E-001  -6.77366E-002    -3.25292E-001  5.21116E-002
104661923    -3.25161E-001  5.17189E-002    6.71858E-001  -6.75653E-002    6.72312E-001  -6.81474E-002    -3.25097E-001  5.22798E-002
105544651    -3.24920E-001  5.21407E-002    6.71795E-001  -6.81922E-002    6.72276E-001  -6.85092E-002    -3.24855E-001  5.27011E-002
106427379    -3.24707E-001  5.26223E-002    6.71743E-001  -6.86456E-002    6.72182E-001  -6.93611E-002    -3.24866E-001  5.33347E-002
107310107    -3.25029E-001  5.29706E-002    6.71204E-001  -6.88049E-002    6.71629E-001  -6.96525E-002    -3.24697E-001  5.37523E-002
108192836    -3.24783E-001  5.32621E-002    6.71117E-001  -6.97070E-002    6.71555E-001  -7.04227E-002    -3.24688E-001  5.40713E-002
109075564    -3.24723E-001  5.36368E-002    6.71266E-001  -7.07086E-002    6.71224E-001  -7.11062E-002    -3.24613E-001  5.45700E-002
109958292    -3.24550E-001  5.39678E-002    6.71511E-001  -7.08322E-002    6.72442E-001  -7.17360E-002    -3.24461E-001  5.47140E-002
110841020    -3.24461E-001  5.44128E-002    6.70713E-001  -7.11206E-002    6.71642E-001  -7.20239E-002    -3.24349E-001  5.53455E-002
111723748    -3.24444E-001  5.49481E-002    6.70916E-001  -7.15830E-002    6.71323E-001  -7.25650E-002    -3.24339E-001  5.58184E-002
112606476    -3.24376E-001  5.53409E-002    6.70836E-001  -7.23522E-002    6.71301E-001  -7.28046E-002    -3.24254E-001  5.63351E-002
113489205    -3.24254E-001  5.58739E-002    6.71037E-001  -7.28873E-002    6.71458E-001  -7.37379E-002    -3.24171E-001  5.65570E-002
114371933    -3.24257E-001  5.59954E-002    6.70736E-001  -7.32912E-002    6.71126E-001  -7.44068E-002    -3.24142E-001  5.69269E-002
115254661    -3.23957E-001  5.63014E-002    6.70651E-001  -7.40532E-002    6.71577E-001  -7.49608E-002    -3.23841E-001  5.72321E-002
116137389    -3.23953E-001  5.71404E-002    6.70874E-001  -7.44560E-002    6.71784E-001  -7.54971E-002    -3.23622E-001  5.78546E-002
117020117    -3.23916E-001  5.72465E-002    6.71040E-001  -7.51807E-002    6.71965E-001  -7.60904E-002    -3.23570E-001  5.80842E-002
117902845    -3.23447E-001  5.75876E-002    6.70942E-001  -7.59514E-002    6.71359E-001  -7.68041E-002    -3.23558E-001  5.86089E-002
118785574    -3.23367E-001  5.81923E-002    6.70891E-001  -7.64463E-002    6.71322E-001  -7.71668E-002    -3.23263E-001  5.89973E-002
119668302    -3.23528E-001  5.85217E-002    6.70856E-001  -7.67558E-002    6.70750E-001  -7.76829E-002    -3.23432E-001  5.92651E-002
120551030    -3.23566E-001  5.88291E-002    6.70784E-001  -7.73256E-002    6.70661E-001  -7.83851E-002    -3.23241E-001  5.94797E-002
121433758    -3.23290E-001  5.90924E-002    6.70199E-001  -7.79500E-002    6.71135E-001  -7.87305E-002    -3.23169E-001  6.00209E-002
122316486    -3.22995E-001  5.95820E-002    6.70131E-001  -7.85243E-002    6.70559E-001  -7.92456E-002    -3.22906E-001  6.02623E-002
123199214    -3.23200E-001  5.98958E-002    6.70044E-001  -7.92925E-002    6.70979E-001  -8.00748E-002    -3.23069E-001  6.08856E-002
124081943    -3.23128E-001  6.04008E-002    6.70790E-001  -7.97564E-002    6.70711E-001  -8.04186E-002    -3.23021E-001  6.12045E-002
124964671    -3.23084E-001  6.06619E-002    6.70145E-001  -8.03924E-002    6.70555E-001  -8.12475E-002    -3.22723E-001  6.15573E-002
125847399    -3.23122E-001  6.11601E-002    6.69845E-001  -8.09106E-002    6.70271E-001  -8.16335E-002    -3.22769E-001  6.19936E-002
126730127    -3.22687E-001  6.16202E-002    6.70099E-001  -8.11359E-002    6.71016E-001  -8.20536E-002    -3.22578E-001  6.24229E-002
127612855    -3.22657E-001  6.21479E-002    6.69747E-001  -8.17210E-002    6.70630E-001  -8.29039E-002    -3.22293E-001  6.30414E-002
128495583    -3.22578E-001  6.22279E-002    6.69683E-001  -8.22250E-002    6.70614E-001  -8.30114E-002    -3.22662E-001  6.33718E-002
129378312    -3.22668E-001  6.26486E-002    6.69905E-001  -8.27803E-002    6.70803E-001  -8.38326E-002    -3.22278E-001  6.37265E-002
