# Hz S RI R 50
140000000 -0.720544874 -0.074467673
140307234 -0.707615315 -0.045678697
140614468 -0.694235622 -0.017205553
140921702 -0.679476678 0.011064857
141228936 -0.662805676 0.037949264
141536169 -0.645231842 0.06495472
141843404 -0.625548779 0.090901531
142150638 -0.605278372 0.116493001
142457872 -0.583680212 0.140287563
142765106 -0.560637235 0.16401714
143072339 -0.536502182 0.186390563
143379574 -0.50999391 0.206914424
143686808 -0.482005447 0.226587563
143994042 -0.451889097 0.244326263
144301276 -0.412791699 0.258505284
144608510 -0.381861805 0.270367473
144915744 -0.35076934 0.280763506
145222978 -0.320665925 0.290113508
145530212 -0.291915833 0.298507958
145837446 -0.266808092 0.307998478
146144679 -0.244605809 0.320691823
146451914 -0.22971031 0.338380515
146759148 -0.225328207 0.36332336
147066382 -0.220169663 0.38489589
147373616 -0.207271277 0.40113902
147680850 -0.190175205 0.413439959
147988084 -0.167479559 0.422725945
148295318 -0.141715452 0.428624361
148602552 -0.114004857 0.432276844
148909786 -0.086346656 0.434814631
149217020 -0.057837899 0.435445755
149524254 -0.030264718 0.434343039
149831488 -0.001762108 0.431715399
150138722 0.025084368 0.428845942
150445956 0.051782496 0.423674762
150753190 0.078461259 0.417960464
151060424 0.104382678 0.411199837
151367658 0.129571959 0.403289407
151674892 0.15397191 0.395591259
151982126 0.177955478 0.38656187
152289359 0.20108807 0.377004921
152596594 0.22411789 0.36677733
152903828 0.246041879 0.356630831
153211062 0.267716497 0.345134258
153518296 0.289141952 0.333465933
153825530 0.31033805 0.321257799
154132764 0.330586194 0.308034658
154439997 0.351202487 0.294181048
154747232 0.371071428 0.279891073
155054467 0.389829933 0.264377415
155361700 0.408545076 0.24809423
155668934 0.426588505 0.230902105
155976168 0.443256765 0.212807908
156283402 0.459070712 0.194613248
156590636 0.473812222 0.174680903
156897870 0.487293988 0.154679819
157205104 0.499842941 0.134171023
157512338 0.510887265 0.112559743
157819572 0.520686388 0.09155514
158126806 0.528951704 0.070024006
158434040 0.536567747 0.048550873
158741274 0.542390346 0.027685804
159048508 0.547006845 0.006310601
159355742 0.550576746 -0.014943165
159662976 0.552930533 -0.034638434
159970210 0.554484248 -0.054076246
160277444 0.555763959 -0.07384359
160584678 0.555409014 -0.092197977
160891912 0.554677009 -0.109931141
161199146 0.553250908 -0.127695485
161506380 0.551547348 -0.144864901
161813614 0.549216151 -0.161434262
162120848 0.546656966 -0.17747493
162428084 0.543926835 -0.19356732
162735316 0.540142118 -0.20908463
163042550 0.535726189 -0.224698171
163349784 0.53119874 -0.239871665
163657018 0.525409877 -0.254406183
163964252 0.519489824 -0.267861336
164271486 0.513450741 -0.281184017
164578718 0.506054997 -0.294188529
164885954 0.499395698 -0.307556122
165193188 0.491569399 -0.319305658
165500422 0.483663618 -0.330961287
165807656 0.474808752 -0.341798186
166114890 0.465727895 -0.352245688
166422124 0.456238299 -0.361744403
166729356 0.446757644 -0.370852261
167036592 0.436648696 -0.378991305
167343826 0.426689416 -0.38653028
167651060 0.415621966 -0.393678396
167958296 0.405458092 -0.399722427
168265528 0.394803017 -0.40510568
168572762 0.384611666 -0.409746617
168879994 0.37447068 -0.413902401
169187230 0.364109516 -0.417464792
169494464 0.353996425 -0.420265555
169801698 0.343396246 -0.422774851
170108934 0.33343923 -0.425018608
170416166 0.322917878 -0.426525205
170723400 0.313114881 -0.426934331
171030634 0.309383213 -0.428050071
171337868 0.298936933 -0.427905261
171645102 0.289812266 -0.426126837
171952336 0.27962929 -0.424824088
172259570 0.270215243 -0.422804892
172566803 0.261616647 -0.419209092
172874038 0.25302127 -0.415518373
173181272 0.245926797 -0.410754144
173488506 0.237932384 -0.406170994
173795740 0.231718748 -0.40117529
174102973 0.225590631 -0.39547345
174410208 0.219842687 -0.390546143
174717442 0.214152246 -0.384849339
175024676 0.209022805 -0.378548949
175331910 0.204317331 -0.371830284
175639144 0.199363991 -0.365143775
175946378 0.195393458 -0.357483923
176253612 0.191851422 -0.349257171
176560846 0.188828185 -0.341070264
176868080 0.18664892 -0.331734478
177175313 0.18539004 -0.322167843
177482548 0.185844138 -0.312490731
177789782 0.18688935 -0.302213281
178097016 0.189018517 -0.292712241
178404250 0.192159146 -0.283158928
178711484 0.196074783 -0.273979991
179018718 0.201207876 -0.265363335
179325952 0.206594347 -0.257167428
179633186 0.212825357 -0.248881548
179940420 0.220210894 -0.24154438
180247654 0.228592365 -0.234952598
180554888 0.237354084 -0.229025736
180862122 0.246295556 -0.224034965
181169356 0.255830228 -0.219538688
181476590 0.265077561 -0.216392159
181783824 0.27433601 -0.213506206
182091058 0.283642917 -0.211301714
182398292 0.293163895 -0.209127992
182705526 0.302429854 -0.207254111
183012760 0.312017828 -0.205934837
183319993 0.322525113 -0.204777851
183627228 0.333259671 -0.204293623
183934462 0.343680918 -0.20360817
184241696 0.354926019 -0.203955337
184548930 0.366088986 -0.204991444
184856164 0.377985447 -0.206203684
185163398 0.389825463 -0.208791926
185470631 0.402032136 -0.212671026
185777866 0.414779841 -0.216756045
186085101 0.426767379 -0.221451044
186392334 0.438592433 -0.22856526
186699568 0.450236618 -0.234613865
187006802 0.461347877 -0.242237955
187314036 0.472004532 -0.251673042
187621270 0.482712537 -0.26020947
187928504 0.492527961 -0.269887357
188235738 0.501537859 -0.280174762
188542972 0.509818136 -0.291024714
188850206 0.517757058 -0.302300184
189157440 0.52482587 -0.313783377
189464674 0.531294524 -0.325532525
189771908 0.537709534 -0.337906867
190079142 0.54349929 -0.350638002
190386376 0.548171401 -0.362311899
190693610 0.552814066 -0.375516176
191000844 0.556566834 -0.38886547
191308078 0.558765709 -0.40177989
191615312 0.561678528 -0.414764702
191922546 0.564038276 -0.428119033
192229780 0.565467774 -0.44111818
192537014 0.566401064 -0.454788237
192844248 0.566089034 -0.467960238
193151482 0.566060304 -0.481036961
193458718 0.564627468 -0.493314057
193765950 0.563714802 -0.505672335
194073184 0.561375796 -0.518240034
194380418 0.559619665 -0.530349493
194687652 0.556529402 -0.542583048
194994886 0.553792059 -0.554005742
195302120 0.550337612 -0.565433382
195609352 0.546528995 -0.576836109
195916588 0.543008208 -0.588021218
196223822 0.538507282 -0.598448753
196531056 0.534669637 -0.608619272
196838290 0.529401779 -0.618696153
197145524 0.524888098 -0.628849267
197452758 0.519340574 -0.6381675
197759990 0.51428467 -0.647799372
198067226 0.509456992 -0.657329738
198374460 0.504129707 -0.665923953
198681694 0.497905582 -0.674751818
198988930 0.49236387 -0.683665335
199296162 0.486705601 -0.69176656
199603396 0.480667144 -0.699386954
199910628 0.474548667 -0.708767533
200217864 0.468046844 -0.716237902
200525098 0.462222456 -0.724126875
200832332 0.454748183 -0.731734275
201139568 0.448005497 -0.738878965
201446800 0.441546171 -0.745889782
201754034 0.434442341 -0.752933263
202061268 0.427109777 -0.759089827
202368502 0.420044779 -0.764947175
202675736 0.413361072 -0.771532714
202982970 0.406063258 -0.776731967
203290204 0.398535013 -0.782259047
203597437 0.391966372 -0.787551462
203904672 0.385206133 -0.793883323
204211906 0.378553241 -0.79900366
204519140 0.371784687 -0.804847359
204826374 0.364233642 -0.810363471
205133607 0.356939613 -0.815402686
205440842 0.350186675 -0.821036577
205748076 0.342950075 -0.82634288
206055310 0.335152417 -0.831421494
206362544 0.327318578 -0.836219251
206669778 0.319360375 -0.841145992
206977012 0.311830133 -0.845238685
207284246 0.304142802 -0.850752532
207591480 0.2953538 -0.854333102
207898714 0.287017583 -0.858365893
208205947 0.27873218 -0.862207472
208513182 0.270723313 -0.865977346
208820416 0.261890083 -0.869453251
209127650 0.253588438 -0.873033761
209434884 0.24545671 -0.875273287
209742118 0.23610872 -0.878586232
210049352 0.227947369 -0.881349921
210356586 0.219101518 -0.883996009
210663820 0.210906699 -0.885824561
210971054 0.202103897 -0.887488543
211278288 0.19392471 -0.890163958
211585522 0.185131549 -0.891037642
211892756 0.176955729 -0.892904758
212199990 0.168666452 -0.894396662
212507224 0.160335943 -0.895673036
212814458 0.151759371 -0.896834433
213121692 0.143479093 -0.897952079
213428926 0.135391607 -0.899019122
213736160 0.127160742 -0.899432182
214043394 0.119095399 -0.900022029
214350627 0.110525906 -0.901187002
214657862 0.102360054 -0.900755465
214965096 0.094007715 -0.900821805
215272330 0.08556845 -0.901367306
215579564 0.078083314 -0.900794506
215886798 0.069483436 -0.900924324
216194032 0.060808736 -0.900772988
216501265 0.05260244 -0.899642765
216808500 0.044649798 -0.89939028
217115735 0.037751082 -0.897785842
217422968 0.028944812 -0.89734143
217730202 0.020439717 -0.89553219
218037436 0.013162659 -0.89506191
218344670 0.005409372 -0.893381416
218651904 -0.001962979 -0.891607344
218959138 -0.009654009 -0.890131711
219266372 -0.017304318 -0.887754738
219573606 -0.025764886 -0.886493444
219880840 -0.032465111 -0.884340941
220188074 -0.040296394 -0.882605373
220495308 -0.047947756 -0.880485355
220802542 -0.054992813 -0.878214061
221109776 -0.062826626 -0.875472128
221417010 -0.069768942 -0.872972548
221724244 -0.077182918 -0.869929909
222031478 -0.08534526 -0.866897702
222338712 -0.092740498 -0.863485753
222645946 -0.100141502 -0.860659956
222953180 -0.106707595 -0.856700181
223260414 -0.113779768 -0.85360521
223567648 -0.121083952 -0.849183201
223874882 -0.127620398 -0.845345199
224182116 -0.135321661 -0.840975701
224489352 -0.141569435 -0.83622992
224796584 -0.148180574 -0.831842422
225103818 -0.154826939 -0.826501727
225411052 -0.161072537 -0.821584284
225718286 -0.167469441 -0.816235661
226025520 -0.173694863 -0.811362147
226332754 -0.180000245 -0.805815935
226639986 -0.186006754 -0.799482882
226947222 -0.191339865 -0.793425858
227254456 -0.196616813 -0.787111222
227561690 -0.201544165 -0.780077815
227868924 -0.206872448 -0.773252606
228176158 -0.211609557 -0.766366183
228483392 -0.215882346 -0.759336709
228790624 -0.219699263 -0.75180602
229097860 -0.223467424 -0.744185388
229405094 -0.227245226 -0.736600637
229712328 -0.230611681 -0.728374361
230019564 -0.233549714 -0.72003293
230326796 -0.235507965 -0.711248159
230634030 -0.236758038 -0.702257454
230941262 -0.238270252 -0.69286102
231248498 -0.239042982 -0.684143483
231555732 -0.237911477 -0.674824655
231862966 -0.237094283 -0.665688097
232170202 -0.235474064 -0.655830085
232477434 -0.232791543 -0.646884024
232784668 -0.229612424 -0.638507246
233091902 -0.224113345 -0.631963849
233399136 -0.21918179 -0.623693287
233706370 -0.212830424 -0.616634547
234013604 -0.205752745 -0.609905302
234320838 -0.197987213 -0.604949891
234628071 -0.189559578 -0.599981009
234935306 -0.180442571 -0.597054183
235242540 -0.170896843 -0.594879806
235549774 -0.161977976 -0.594342052
235857008 -0.152213186 -0.595045447
236164241 -0.142262265 -0.597444474
236471476 -0.133724287 -0.600611269
236778710 -0.125034764 -0.60557419
237085944 -0.117461979 -0.611900568
237393178 -0.110610842 -0.619200527
237700412 -0.105227537 -0.627581477
238007646 -0.100863195 -0.636348545
238314880 -0.097896151 -0.646345138
238622114 -0.095635436 -0.656025707
238929348 -0.095561787 -0.666305959
239236581 -0.096592918 -0.67661488
239543816 -0.098119862 -0.686175823
239851050 -0.101253353 -0.696257948
240158284 -0.105404153 -0.705455303
240465518 -0.110330179 -0.714241266
240772752 -0.116464264 -0.722561419
241079986 -0.123405188 -0.730498552
241387220 -0.130726441 -0.737371742
241694454 -0.138746455 -0.744073808
242001688 -0.147201955 -0.749473929
242308922 -0.156216561 -0.754500448
242616156 -0.165334969 -0.758516132
242923390 -0.175009936 -0.762610435
243230624 -0.184407919 -0.765486776
243537858 -0.19363445 -0.768185973
243845092 -0.20344977 -0.769399523
244152326 -0.21360132 -0.770685613
244459560 -0.223220244 -0.771749913
244766794 -0.232181563 -0.771442055
245074028 -0.241754785 -0.771514177
245381261 -0.25128895 -0.770565211
245688496 -0.260109722 -0.769354045
245995730 -0.268368333 -0.767545461
246302964 -0.277909666 -0.765769898
246610198 -0.286529839 -0.763796865
246917432 -0.295122355 -0.760985553
247224666 -0.303480893 -0.758591711
247531899 -0.312235832 -0.755390882
247839134 -0.319880247 -0.752278029
248146369 -0.328108429 -0.748061418
248453602 -0.335709244 -0.744457602
248760836 -0.34345436 -0.74031794
249068070 -0.350502878 -0.735688447
249375304 -0.35754776 -0.73139888
249682538 -0.364448308 -0.726103961
249989772 -0.37106803 -0.721649825
250297006 -0.377072513 -0.71627146
250604240 -0.383415043 -0.711282253
250911474 -0.388791829 -0.705999314
251218708 -0.394813567 -0.700864434
251525942 -0.399501681 -0.695687472
251833176 -0.404717057 -0.689982414
252140410 -0.410242348 -0.684521853
252447644 -0.41471365 -0.679595172
252754878 -0.419774055 -0.673905491
253062112 -0.424723714 -0.668620467
253369346 -0.428615033 -0.66287738
253676580 -0.433148145 -0.658454656
253983814 -0.437322437 -0.652969479
254291048 -0.441554158 -0.6475811
254598282 -0.445529758 -0.641687631
254905516 -0.449236214 -0.636736512
255212750 -0.453501135 -0.631189465
255519986 -0.457041174 -0.625312328
255827218 -0.460377812 -0.619865179
256134452 -0.464220792 -0.614572584
256441686 -0.467616617 -0.608792841
256748920 -0.470996528 -0.603281557
257056154 -0.474337577 -0.597755849
257363388 -0.477346748 -0.591959834
257670620 -0.480445891 -0.586885571
257977856 -0.483592182 -0.580872237
258285090 -0.486395269 -0.574660658
258592324 -0.489085644 -0.569250226
258899558 -0.491889059 -0.563780784
259206792 -0.494458526 -0.558424353
259514026 -0.497013032 -0.552385985
259821258 -0.499607026 -0.546662628
260128494 -0.502062082 -0.541466295
260435728 -0.50411123 -0.535668313
260742962 -0.506370306 -0.529416084
261050198 -0.508782684 -0.524118483
261357430 -0.510410964 -0.51803404
261664664 -0.512022674 -0.51307404
261971896 -0.514577805 -0.506917893
262279132 -0.515612304 -0.501558244
262586366 -0.517577648 -0.495918095
262893600 -0.519160628 -0.49004969
263200836 -0.520951509 -0.484939903
263508068 -0.522050321 -0.47957158
263815302 -0.523682296 -0.473701477
264122536 -0.526415109 -0.467507302
264429770 -0.527692437 -0.46245855
264737004 -0.529555797 -0.456708699
265044238 -0.530858218 -0.451504796
265351472 -0.53281188 -0.44593513
265658705 -0.534469187 -0.439815819
265965940 -0.535592317 -0.434991955
266273174 -0.537013471 -0.428794205
266580408 -0.53862828 -0.422849088
266887642 -0.539797782 -0.417023241
267194875 -0.540962219 -0.411043882
267502110 -0.541949391 -0.405382543
267809344 -0.543270707 -0.398819625
268116578 -0.543647527 -0.393440127
268423812 -0.544686615 -0.387427806
268731046 -0.545364916 -0.381478756
269038280 -0.546309113 -0.375303596
269345514 -0.547061026 -0.369552075
269652748 -0.54763776 -0.363328367
269959982 -0.548439621 -0.357404619
270267215 -0.548313796 -0.350935876
270574450 -0.548788011 -0.344784736
270881684 -0.548901677 -0.339054912
271188918 -0.549303352 -0.332568466
271496152 -0.548764169 -0.326193988
271803386 -0.548359513 -0.319975048
272110620 -0.54795295 -0.313980281
272417854 -0.547585844 -0.307839035
272725088 -0.546915054 -0.30222097
273032322 -0.546164929 -0.295384138
273339556 -0.545851647 -0.289677888
273646790 -0.544476449 -0.283723205
273954024 -0.543427169 -0.277519553
274261258 -0.542781591 -0.271449178
274568492 -0.541737675 -0.26609531
274875726 -0.540780782 -0.259709119
275182960 -0.539190292 -0.254450619
275490194 -0.538588345 -0.248785778
275797428 -0.537282288 -0.242761164
276104662 -0.535778522 -0.237283468
276411895 -0.534473598 -0.23102191
276719130 -0.533464789 -0.225931107
277026364 -0.532205164 -0.219861045
277333598 -0.530566513 -0.213981211
277640832 -0.52935934 -0.208669379
277948066 -0.527178764 -0.202768296
278255300 -0.525767445 -0.197356507
278562533 -0.524271667 -0.192004665
278869768 -0.523084104 -0.186119168
279177003 -0.521032929 -0.180648386
279484236 -0.519267678 -0.175265178
279791470 -0.517660856 -0.169159501
280098704 -0.515894114 -0.163792759
280405938 -0.514007687 -0.157745704
280713172 -0.511822521 -0.152312338
281020406 -0.509251832 -0.14665091
281327640 -0.506862282 -0.141145691
281634874 -0.505178868 -0.135393649
281942108 -0.503098607 -0.130084976
282249342 -0.500118732 -0.124543815
282556576 -0.49783945 -0.118902169
282863810 -0.495216071 -0.113477326
283171044 -0.492336213 -0.108579479
283478278 -0.489296227 -0.102683566
283785512 -0.486703395 -0.097417466
284092746 -0.48380506 -0.091916061
284399980 -0.480933099 -0.087093368
284707214 -0.477742463 -0.081715345
285014448 -0.474802017 -0.076475627
285321682 -0.471661686 -0.070840254
285628916 -0.468887537 -0.065928071
285936150 -0.465906649 -0.061350177
286243384 -0.461863756 -0.055866178
286550620 -0.458607286 -0.05043013
286857852 -0.455549031 -0.045645032
287165086 -0.45155555 -0.040882755
287472320 -0.447465986 -0.035264462
287779554 -0.443931043 -0.029745355
288086788 -0.439934641 -0.024774778
288394022 -0.436197847 -0.020021386
288701254 -0.431959956 -0.015013962
289008490 -0.427578032 -0.010605479
289315724 -0.423828274 -0.005265513
289622958 -0.418648093 -0.001015597
289930192 -0.414591252 0.004003537
290237426 -0.409809559 0.008439064
290544660 -0.405255675 0.01276547
290851892 -0.39965409 0.017221221
291159128 -0.395296752 0.021493824
291466362 -0.390108168 0.02590033
291773596 -0.385191023 0.030091928
292080832 -0.379876852 0.033840294
292388064 -0.374741733 0.037781257
292695298 -0.36923623 0.04097012
293002530 -0.364293336 0.045143079
293309766 -0.359098225 0.048435423
293617000 -0.353837192 0.051173914
293924234 -0.34824723 0.054473843
294231470 -0.343492746 0.058362241
294538702 -0.337800383 0.060658514
294845936 -0.331986874 0.063676476
295153170 -0.327601045 0.065386958
295460404 -0.322849333 0.06812565
295767638 -0.317867189 0.070542186
296074872 -0.31179279 0.073497921
296382106 -0.306153357 0.076434701
296689339 -0.301116794 0.078869417
296996574 -0.295280784 0.081720538
297303808 -0.28973931 0.083908028
297611042 -0.284551739 0.086093887
297918276 -0.278555184 0.088601596
298225509 -0.273749947 0.09041997
298532744 -0.267449796 0.09309598
298839978 -0.262523293 0.095738738
299147212 -0.256011009 0.09808503
299454446 -0.250353157 0.100595057
299761680 -0.244020372 0.102110177
300068914 -0.281908929 0.131197333
300376148 -0.27315706 0.13438782
300683382 -0.266562372 0.13586533
300990616 -0.259558349 0.138872325
301297849 -0.252486258 0.140640765
301605084 -0.244293302 0.142799153
301912318 -0.2369657 0.143745228
302219552 -0.228306725 0.145925
302526786 -0.220833957 0.145206913
302834020 -0.213503584 0.147272944
303141254 -0.205865189 0.148496061
303448488 -0.198276787 0.149247452
303755722 -0.191526353 0.149417906
304062956 -0.183093607 0.148920461
304370190 -0.175830036 0.1508587
304677424 -0.168572083 0.149220407
304984658 -0.161049425 0.149222746
305291892 -0.153603434 0.149473041
305599126 -0.146718978 0.149297744
305906360 -0.139164417 0.149031028
306213594 -0.13254702 0.148135378
306520828 -0.125445082 0.147586107
306828062 -0.118951223 0.147320404
307135296 -0.112064555 0.147520348
307442529 -0.105627678 0.14754635
307749764 -0.097580112 0.145733356
308056998 -0.091351322 0.144378021
308364232 -0.084506593 0.143624454
308671466 -0.077683858 0.142921626
308978700 -0.070093169 0.14265421
309285934 -0.063272051 0.141863286
309593167 -0.056773819 0.140300258
309900402 -0.049546733 0.139516025
310207637 -0.042794372 0.138279587
310514870 -0.03518781 0.135735973
310822104 -0.028595736 0.134260192
311129338 -0.02018802 0.13241665
311436572 -0.013772861 0.130612418
311743806 -0.007696078 0.127634227
312051040 -0.000633327 0.1245737
312358274 0.005943323 0.121017262
312665508 0.01224513 0.119415938
312972742 0.019459825 0.115979
313279976 0.025634812 0.112828984
313587210 0.031763367 0.110853269
313894444 0.038404583 0.107830174
314201678 0.04422805 0.104382388
314508912 0.05027648 0.101722292
