# HZ S RI R 50
200000000 0.9983237454747583 0.054252976433478324
201000000 0.9981801449420438 0.05325111954956431
202000000 0.9980356021533138 0.05375931392995528
203000000 0.99816818249912 0.05588720166124264
204000000 0.9978661942161071 0.055359539190008966
205000000 0.997625987232743 0.05525710052998494
206000000 0.9976668205216893 0.05506673420475188
207000000 0.9989507832819968 0.0557989539143409
208000000 0.9985269616633635 0.056020179477492084
209000000 0.9977812467167855 0.056716034278600294
210000000 0.9975467678052998 0.05694157627109465
211000000 0.998838138052381 0.057146819999689444
212000000 0.9979938454488549 0.057062020301186414
213000000 0.9983719536316094 0.05803133459329076
214000000 0.9989306458703168 0.05865589172592955
215000000 0.9967457900102514 0.057374340412010116
216000000 0.99795756976149 0.05896061271980533
217000000 0.9995489723928674 0.059285069106537906
218000000 0.9986176525607264 0.05965992568323054
219000000 0.9974635281662345 0.05891807878823223
220000000 0.9984295126791514 0.05919002916126207
221000000 0.9979993998237353 0.05923190865495068
222000000 0.9974118553142552 0.059871021438485085
223000000 0.9972372933751866 0.059815402945971353
224000000 0.997348039704881 0.059974492493209845
225000000 0.9972252773528719 0.0608135350500931
226000000 0.9977965431684596 0.058841997329592825
227000000 0.9976348377647214 0.0615024286955781
228000000 0.9978230367810327 0.06077716268240004
229000000 0.9983166166328095 0.06359616554565174
230000000 0.9980011028223256 0.06176080522759875
231000000 0.9982795135018049 0.06234733692646284
232000000 0.9987615600243828 0.06266607029618809
233000000 0.9978001662559638 0.06211170942585016
234000000 0.99876048956477 0.06210825459040856
235000000 0.9964660418661756 0.06293198810260658
236000000 0.9974171173902692 0.06117167472758814
237000000 0.9977257155926429 0.06277772702464698
238000000 0.9982886207124259 0.06315906820940645
239000000 0.9973045310061558 0.06341170788629184
240000000 0.9977023234753631 0.06378781858423106
241000000 0.9988012038778653 0.06496372930678161
242000000 0.9972823885902345 0.06440208696898513
243000000 0.9980249526213418 0.06452464815408565
244000000 0.998364379133989 0.06504029259696895
245000000 0.9976309685403584 0.0638937469810314
246000000 0.9977291804120059 0.06440966593219502
247000000 0.9983528962572561 0.06599727752389983
248000000 0.9976340381123913 0.06543078115576723
249000000 0.9983224537253816 0.0660935108528695
250000000 0.9984320564889841 0.06807892281068366
251000000 0.9977596975236899 0.06537261274874938
252000000 0.9981260952033183 0.06829950832821408
253000000 0.9978263564463402 0.06742329481503007
254000000 0.9984799902529107 0.06877628598433144
255000000 0.9981253202358327 0.06725851566776965
256000000 0.9983459524052654 0.06790858806797255
257000000 0.9972157499261518 0.06889284850826684
258000000 0.9982761290481796 0.06803423544296625
259000000 0.9970468070203565 0.06799061085170678
260000000 0.9975964676224909 0.06776586302973409
261000000 0.9969310982862624 0.06795234797555347
262000000 0.9977527924538838 0.06946811579375953
263000000 0.9969326617275697 0.07072745891211477
264000000 0.9976459163733019 0.06973236148434601
265000000 0.9964090591584315 0.06907864255022102
266000000 0.9983550455082911 0.07214699120942897
267000000 0.9966799528056401 0.07122926921544041
268000000 0.9978489587683784 0.07149916626088745
269000000 0.9985697211944131 0.07107198819670679
270000000 0.9956547552164912 0.0712580748171368
271000000 0.9976410015120722 0.07310416379534193
272000000 0.9986071743130795 0.07199830706275298
273000000 0.9980433639168048 0.07213110065295612
274000000 0.9968273004559505 0.07235716432542226
275000000 0.9967617446861382 0.07400010460229783
276000000 0.9964163219348253 0.07312685780443444
277000000 0.9970678474474282 0.07382864583834665
278000000 0.9968082785597264 0.07461888612083849
279000000 0.9961371886616062 0.0737209786781675
280000000 0.9970554795163619 0.07431087692471942
281000000 0.9965609868241296 0.07545802143616995
282000000 0.9981694408813551 0.07421363422611986
283000000 0.9982620288819636 0.0752504023659176
284000000 0.9962435606529738 0.07671863784891594
285000000 0.9977334582397902 0.07579089912471189
286000000 0.9952016077978535 0.07595736762740875
287000000 0.9962370447943562 0.07601588195068226
288000000 0.99693667613338 0.07869397919346535
289000000 0.9962205288538121 0.0771779022069723
290000000 0.9955771122718405 0.07635957685945759
291000000 0.997463785190588 0.07820970038185741
292000000 0.9975133810558902 0.0777757093747184
293000000 0.9978613389840202 0.07908395724958518
294000000 0.9976897714433687 0.07859764245295639
295000000 0.9954560158572916 0.07730151914600736
296000000 0.9957845917945681 0.08018856925137306
297000000 0.9986408212450184 0.08013819579467844
298000000 0.995538080855166 0.08025111100814115
299000000 0.9975393003316874 0.07989425072869846
300000000 0.9958569643338128 0.08008514891869226
